Time [s],Value,Parity Error,Framing Error
1.116414,A,,
1.116674,L,,
1.116934,~,,
1.117194,R,,
1.117454,E,,
1.117714,A,,
1.117974,D,,
1.118234,Y,,
1.394945,L,,
1.395205,C,,
1.395465,S,,
1.395725,A,,
1.395985,'250',,
1.396245,Q,,
1.396505,'160',,
1.396765,'0',,
1.397025,\n,,
1.397285,'0',,
1.397545,'0',,
1.397805,'0',,
1.398065,\n,,
1.398326,'248',,
1.398586,'31',,
1.398846,H,,
1.399106,'31',,
1.399366,'0',,
1.399626,'0',,
1.399886,'0',,
1.400146,'0',,
1.400406,'0',,
1.400666,'169',,
1.400926,'154',,
1.401186,'169',,
1.401446,'155',,
1.401706,'225',,
1.401966,'142',,
1.402226,'176',,
1.402486,'139',,
1.402746,'19',,
1.403006,'140',,
1.403266,'4',,
1.403526,'0',,
1.427777,L,,
1.428037,C,,
1.428297,S,,
1.428557,A,,
1.428817,'250',,
1.429077,Q,,
1.429337,'160',,
1.429597,'0',,
1.429857,\n,,
1.430117,'0',,
1.430377,'1',,
1.430637,'0',,
1.430897,\n,,
1.431157,'248',,
1.431417,'31',,
1.431677,H,,
1.431937,'31',,
1.432197,'0',,
1.432457,'0',,
1.432717,'0',,
1.432977,'0',,
1.433237,'0',,
1.433497,'169',,
1.433757,'154',,
1.434017,'169',,
1.434277,'155',,
1.434537,'225',,
1.434797,'142',,
1.435057,'176',,
1.435317,'139',,
1.435578,'19',,
1.435838,'140',,
1.436098,'4',,
1.436358,'8',,
1.616833,L,,
1.617093,C,,
1.617353,S,,
1.617613,A,,
1.617873,'250',,
1.618133,Q,,
1.618393,'160',,
1.618653,'0',,
1.618913,\n,,
1.619173,'0',,
1.619433,'1',,
1.619694,'0',,
1.619954,\n,,
1.620214,'248',,
1.620474,'31',,
1.620734,H,,
1.620994,'31',,
1.621254,'0',,
1.621514,'0',,
1.621774,'0',,
1.622034,'0',,
1.622294,'0',,
1.622554,'169',,
1.622814,'154',,
1.623074,'169',,
1.623334,'155',,
1.623594,'225',,
1.623854,'142',,
1.624114,'176',,
1.624374,'139',,
1.624634,'19',,
1.624894,'140',,
1.625154,'4',,
1.625414,'8',,
1.63771,L,,
1.63797,C,,
1.63823,S,,
1.63849,A,,
1.63875,'250',,
1.63901,Q,,
1.63927,'160',,
1.63953,'0',,
1.63979,\n,,
1.64005,'0',,
1.64031,'1',,
1.64057,'0',,
1.64083,\n,,
1.64109,'248',,
1.64135,'31',,
1.64161,H,,
1.64187,'31',,
1.64213,'16',,
1.64239,'0',,
1.642651,'0',,
1.642911,'0',,
1.643171,'0',,
1.643431,'169',,
1.643691,'154',,
1.643951,'169',,
1.644211,'155',,
1.644471,'225',,
1.644731,'142',,
1.644991,'176',,
1.645251,'139',,
1.645511,'19',,
1.645771,'140',,
1.646031,'4',,
1.646291,'8',,
1.64787,L,,
1.64813,C,,
1.648391,S,,
1.648651,A,,
1.648911,'250',,
1.649171,Q,,
1.649431,'160',,
1.649691,'0',,
1.649951,\n,,
1.650211,'0',,
1.650471,'1',,
1.650731,'0',,
1.650991,\n,,
1.651251,'248',,
1.651511,'31',,
1.651771,H,,
1.652031,'31',,
1.652291,0,,
1.652551,'0',,
1.652811,'0',,
1.653071,'0',,
1.653331,'0',,
1.653591,'169',,
1.653851,'154',,
1.654111,'169',,
1.654371,'155',,
1.654631,'225',,
1.654891,'142',,
1.655151,'176',,
1.655411,'139',,
1.655671,'19',,
1.655931,'140',,
1.656191,'4',,
1.656451,'8',,
1.659061,L,,
1.659321,C,,
1.659581,S,,
1.659841,A,,
1.660101,'250',,
1.660362,Q,,
1.660622,'160',,
1.660881,'0',,
1.661142,\n,,
1.661402,'0',,
1.661662,'1',,
1.661922,'0',,
1.662182,\n,,
1.662442,'248',,
1.662702,'31',,
1.662962,H,,
1.663222,'31',,
1.663482,p,,
1.663742,'0',,
1.664002,'0',,
1.664262,'0',,
1.664522,'0',,
1.664782,'169',,
1.665042,'154',,
1.665302,'169',,
1.665562,'155',,
1.665822,'225',,
1.666082,'142',,
1.666342,'176',,
1.666602,'139',,
1.666862,'19',,
1.667122,'140',,
1.667382,'4',,
1.667642,'8',,
1.677707,L,,
1.677967,C,,
1.678227,S,,
1.678487,A,,
1.678747,'250',,
1.679007,Q,,
1.679267,'160',,
1.679527,'0',,
1.679787,\n,,
1.680047,'0',,
1.680307,'1',,
1.680567,'0',,
1.680827,\n,,
1.681087,'248',,
1.681347,'31',,
1.681607,H,,
1.681867,'31',,
1.682127,'248',,
1.682387,'0',,
1.682647,'0',,
1.682907,'0',,
1.683167,'0',,
1.683427,'169',,
1.683687,'154',,
1.683947,'169',,
1.684207,'155',,
1.684468,'225',,
1.684728,'142',,
1.684988,'176',,
1.685248,'139',,
1.685508,'19',,
1.685768,'140',,
1.686028,'4',,
1.686288,'8',,
1.68771,L,,
1.68797,C,,
1.68823,S,,
1.68849,A,,
1.68875,'250',,
1.68901,Q,,
1.68927,'160',,
1.68953,'0',,
1.68979,\n,,
1.69005,'0',,
1.69031,'1',,
1.69057,'0',,
1.69083,\n,,
1.69109,'248',,
1.69135,'31',,
1.69161,H,,
1.69187,'31',,
1.69213,'252',,
1.69239,'0',,
1.69265,'0',,
1.69291,'0',,
1.69317,'0',,
1.69343,'169',,
1.69369,'154',,
1.69395,'169',,
1.69421,'155',,
1.69447,'225',,
1.69473,'142',,
1.69499,'176',,
1.69525,'139',,
1.69551,'19',,
1.69577,'140',,
1.696031,'4',,
1.696291,'8',,
1.697713,L,,
1.697973,C,,
1.698233,S,,
1.698493,A,,
1.698753,'250',,
1.699013,Q,,
1.699273,'160',,
1.699533,'0',,
1.699793,\n,,
1.700053,'0',,
1.700313,'1',,
1.700573,'0',,
1.700833,\n,,
1.701093,'248',,
1.701353,'31',,
1.701613,H,,
1.701873,'31',,
1.702133,'254',,
1.702393,'0',,
1.702653,'0',,
1.702913,'0',,
1.703173,'0',,
1.703433,'169',,
1.703693,'154',,
1.703953,'169',,
1.704213,'155',,
1.704473,'225',,
1.704733,'142',,
1.704993,'176',,
1.705253,'139',,
1.705513,'19',,
1.705773,'140',,
1.706033,'4',,
1.706293,'8',,
1.707714,L,,
1.707974,C,,
1.708234,S,,
1.708494,A,,
1.708754,'250',,
1.709014,Q,,
1.709274,'160',,
1.709534,'0',,
1.709794,\n,,
1.710054,'0',,
1.710314,'1',,
1.710574,'0',,
1.710834,\n,,
1.711094,'248',,
1.711354,'31',,
1.711614,H,,
1.711874,'31',,
1.712134,'255',,
1.712394,'0',,
1.712654,'0',,
1.712914,'0',,
1.713174,'0',,
1.713434,'169',,
1.713694,'154',,
1.713954,'169',,
1.714214,'155',,
1.714474,'225',,
1.714735,'142',,
1.714995,'176',,
1.715255,'139',,
1.715515,'19',,
1.715775,'140',,
1.716035,'4',,
1.716295,'8',,
1.717715,L,,
1.717975,C,,
1.718235,S,,
1.718495,A,,
1.718755,'250',,
1.719015,Q,,
1.719275,'160',,
1.719535,'0',,
1.719795,\n,,
1.720055,'0',,
1.720315,'1',,
1.720575,'0',,
1.720835,\n,,
1.721095,'248',,
1.721355,'31',,
1.721615,H,,
1.721875,'31',,
1.722135,'255',,
1.722396,'16',,
1.722655,'0',,
1.722916,'0',,
1.723176,'0',,
1.723436,'169',,
1.723696,'154',,
1.723956,'169',,
1.724216,'155',,
1.724476,'225',,
1.724736,'142',,
1.724996,'176',,
1.725256,'139',,
1.725516,'19',,
1.725776,'140',,
1.726036,'4',,
1.726296,'8',,
1.737729,L,,
1.737989,C,,
1.738249,S,,
1.738509,A,,
1.738769,'250',,
1.739029,Q,,
1.739289,'160',,
1.739549,'0',,
1.739809,\n,,
1.740069,'0',,
1.740329,'1',,
1.740589,'0',,
1.740849,\n,,
1.741109,'248',,
1.741369,'31',,
1.741629,H,,
1.741889,'31',,
1.742149,'255',,
1.742409,0,,
1.742669,'0',,
1.742929,'0',,
1.743189,'0',,
1.743449,'169',,
1.743709,'154',,
1.743969,'169',,
1.74423,'155',,
1.74449,'225',,
1.74475,'142',,
1.74501,'176',,
1.74527,'139',,
1.74553,'19',,
1.74579,'140',,
1.74605,'4',,
1.74631,'8',,
1.767721,L,,
1.767981,C,,
1.768241,S,,
1.768501,A,,
1.768761,'250',,
1.769021,Q,,
1.769281,'160',,
1.769541,'0',,
1.769801,\n,,
1.770061,'0',,
1.770321,'1',,
1.770581,'0',,
1.770841,\n,,
1.771102,'248',,
1.771362,'31',,
1.771622,H,,
1.771882,'31',,
1.772142,'255',,
1.772402,p,,
1.772662,'0',,
1.772922,'0',,
1.773182,'0',,
1.773442,'169',,
1.773702,'154',,
1.773962,'169',,
1.774222,'155',,
1.774482,'225',,
1.774742,'142',,
1.775002,'176',,
1.775262,'139',,
1.775522,'19',,
1.775782,'140',,
1.776042,'4',,
1.776302,'8',,
1.807728,L,,
1.807988,C,,
1.808248,S,,
1.808508,A,,
1.808768,'250',,
1.809028,Q,,
1.809288,'160',,
1.809548,'0',,
1.809808,\n,,
1.810068,'0',,
1.810328,'1',,
1.810588,'0',,
1.810848,\n,,
1.811108,'248',,
1.811368,'31',,
1.811628,H,,
1.811888,'31',,
1.812148,'255',,
1.812408,'240',,
1.812668,'0',,
1.812928,'0',,
1.813188,'0',,
1.813448,'169',,
1.813708,'154',,
1.813968,'169',,
1.814228,'155',,
1.814488,'225',,
1.814749,'142',,
1.815008,'176',,
1.815268,'139',,
1.815529,'19',,
1.815789,'140',,
1.816049,'4',,
1.816309,'8',,
1.877735,L,,
1.877995,C,,
1.878255,S,,
1.878515,A,,
1.878775,'250',,
1.879035,Q,,
1.879295,'160',,
1.879555,'0',,
1.879815,\n,,
1.880075,'0',,
1.880335,'1',,
1.880595,'0',,
1.880855,\n,,
1.881115,'248',,
1.881375,'31',,
1.881635,H,,
1.881895,'31',,
1.882155,'255',,
1.882415,'248',,
1.882675,'0',,
1.882935,'0',,
1.883195,'0',,
1.883455,'169',,
1.883715,'154',,
1.883975,'169',,
1.884235,'155',,
1.884495,'225',,
1.884756,'142',,
1.885015,'176',,
1.885276,'139',,
1.885536,'19',,
1.885796,'140',,
1.886056,'4',,
1.886316,'8',,
1.916698,L,,
1.916958,C,,
1.917218,S,,
1.917478,A,,
1.917738,'250',,
1.917998,Q,,
1.918258,'160',,
1.918518,'0',,
1.918778,\n,,
1.919038,'0',,
1.919298,'1',,
1.919558,'0',,
1.919818,\n,,
1.920078,'248',,
1.920338,'31',,
1.920598,H,,
1.920858,'31',,
1.921118,'255',,
1.921378,'248',,
1.921638,'0',,
1.921899,'0',,
1.922159,'0',,
1.922419,'169',,
1.922679,'154',,
1.922939,'169',,
1.923199,'155',,
1.923459,'225',,
1.923719,'142',,
1.923979,'176',,
1.924239,'139',,
1.924499,'19',,
1.924759,'140',,
1.925019,'4',,
1.925279,'8',,
1.977624,L,,
1.977884,C,,
1.978144,S,,
1.978404,A,,
1.978664,'250',,
1.978924,Q,,
1.979184,'160',,
1.979444,'0',,
1.979704,\n,,
1.979964,'0',,
1.980224,'1',,
1.980484,'0',,
1.980744,\n,,
1.981004,'248',,
1.981264,'31',,
1.981524,H,,
1.981784,'31',,
1.982044,'255',,
1.982304,'252',,
1.982564,'0',,
1.982824,'0',,
1.983084,'0',,
1.983344,'169',,
1.983604,'154',,
1.983864,'169',,
1.984124,'155',,
1.984384,'225',,
1.984644,'142',,
1.984904,'176',,
1.985164,'139',,
1.985424,'19',,
1.985684,'140',,
1.985944,'4',,
1.986204,'8',,
2.216898,L,,
2.217158,C,,
2.217418,S,,
2.217678,A,,
2.217938,'250',,
2.218198,Q,,
2.218458,'160',,
2.218718,'0',,
2.218978,\n,,
2.219238,'0',,
2.219498,'1',,
2.219758,'0',,
2.220018,\n,,
2.220278,'248',,
2.220538,'31',,
2.220798,H,,
2.221058,'31',,
2.221318,'255',,
2.221578,'252',,
2.221838,'0',,
2.222098,'0',,
2.222358,'0',,
2.222618,'169',,
2.222878,'154',,
2.223138,'169',,
2.223398,'155',,
2.223658,'225',,
2.223918,'142',,
2.224178,'176',,
2.224438,'139',,
2.224698,'19',,
2.224958,'140',,
2.225218,'4',,
2.225478,'8',,
2.497797,L,,
2.498057,C,,
2.498317,S,,
2.498577,A,,
2.498837,'250',,
2.499097,Q,,
2.499357,'160',,
2.499617,'0',,
2.499877,\n,,
2.500137,'0',,
2.500397,'1',,
2.500657,'0',,
2.500917,\n,,
2.501177,'248',,
2.501437,'31',,
2.501697,H,,
2.501957,'31',,
2.502217,'255',,
2.502477,'254',,
2.502737,'0',,
2.502997,'0',,
2.503257,'0',,
2.503517,'169',,
2.503777,'154',,
2.504037,'169',,
2.504297,'155',,
2.504557,'225',,
2.504817,'142',,
2.505077,'176',,
2.505337,'139',,
2.505597,'19',,
2.505857,'140',,
2.506118,'4',,
2.506378,'8',,
2.507796,L,,
2.508056,C,,
2.508316,S,,
2.508576,A,,
2.508836,'250',,
2.509096,Q,,
2.509357,'160',,
2.509616,'0',,
2.509877,\n,,
2.510137,'0',,
2.510397,'1',,
2.510657,'0',,
2.510917,\n,,
2.511177,'248',,
2.511437,'31',,
2.511697,H,,
2.511957,'31',,
2.512217,'255',,
2.512477,'252',,
2.512737,'0',,
2.512997,'0',,
2.513257,'0',,
2.513517,'169',,
2.513777,'154',,
2.514037,'169',,
2.514297,'155',,
2.514557,'225',,
2.514817,'142',,
2.515077,'176',,
2.515337,'139',,
2.515597,'19',,
2.515857,'140',,
2.516117,'4',,
2.516377,'8',,
2.516756,L,,
2.517016,C,,
2.517276,S,,
2.517536,A,,
2.517796,'250',,
2.518056,Q,,
2.518316,'160',,
2.518576,'0',,
2.518836,\n,,
2.519096,'0',,
2.519356,'1',,
2.519616,'0',,
2.519876,\n,,
2.520136,'248',,
2.520396,'31',,
2.520656,H,,
2.520916,'31',,
2.521176,'255',,
2.521436,'252',,
2.521696,'0',,
2.521956,'0',,
2.522216,'0',,
2.522476,'169',,
2.522736,'154',,
2.522996,'169',,
2.523257,'155',,
2.523516,'225',,
2.523777,'142',,
2.524037,'176',,
2.524297,'139',,
2.524557,'19',,
2.524817,'140',,
2.525077,'4',,
2.525337,'8',,
2.547679,L,,
2.547939,C,,
2.548199,S,,
2.548459,A,,
2.548719,'250',,
2.548979,Q,,
2.54924,'160',,
2.5495,'0',,
2.54976,\n,,
2.55002,'0',,
2.55028,'1',,
2.55054,'0',,
2.5508,\n,,
2.55106,'248',,
2.55132,'31',,
2.55158,H,,
2.55184,'31',,
2.5521,'255',,
2.55236,'254',,
2.55262,'0',,
2.55288,'0',,
2.55314,'0',,
2.5534,'169',,
2.55366,'154',,
2.55392,'169',,
2.55418,'155',,
2.55444,'225',,
2.5547,'142',,
2.55496,'176',,
2.55522,'139',,
2.55548,'19',,
2.55574,'140',,
2.556,'4',,
2.55626,'8',,
2.816957,L,,
2.817217,C,,
2.817477,S,,
2.817737,A,,
2.817997,'250',,
2.818257,Q,,
2.818517,'160',,
2.818777,'0',,
2.819037,\n,,
2.819297,'0',,
2.819557,'1',,
2.819817,'0',,
2.820077,\n,,
2.820337,'248',,
2.820597,'31',,
2.820857,H,,
2.821117,'31',,
2.821377,'255',,
2.821637,'254',,
2.821898,'0',,
2.822158,'0',,
2.822418,'0',,
2.822678,'169',,
2.822938,'154',,
2.823198,'169',,
2.823458,'155',,
2.823718,'225',,
2.823978,'142',,
2.824238,'176',,
2.824498,'139',,
2.824758,'19',,
2.825018,'140',,
2.825278,'4',,
2.825538,'8',,
3.067852,L,,
3.068112,C,,
3.068373,S,,
3.068633,A,,
3.068893,'250',,
3.069153,Q,,
3.069413,'160',,
3.069673,'0',,
3.069933,\n,,
3.070193,'0',,
3.070453,'1',,
3.070713,'0',,
3.070973,\n,,
3.071233,'248',,
3.071493,'31',,
3.071753,H,,
3.072013,'31',,
3.072273,'255',,
3.072533,'252',,
3.072793,'0',,
3.073053,'0',,
3.073313,'0',,
3.073573,'169',,
3.073833,'154',,
3.074093,'169',,
3.074353,'155',,
3.074613,'225',,
3.074873,'142',,
3.075133,'176',,
3.075393,'139',,
3.075653,'19',,
3.075913,'140',,
3.076173,'4',,
3.076433,'8',,
3.087855,L,,
3.088115,C,,
3.088375,S,,
3.088635,A,,
3.088895,'250',,
3.089155,Q,,
3.089415,'160',,
3.089675,'0',,
3.089935,\n,,
3.090195,'0',,
3.090455,'1',,
3.090715,'0',,
3.090975,\n,,
3.091235,'248',,
3.091495,'31',,
3.091755,H,,
3.092015,'31',,
3.092275,'255',,
3.092535,'254',,
3.092795,'0',,
3.093055,'0',,
3.093315,'0',,
3.093575,'169',,
3.093836,'154',,
3.094096,'169',,
3.094356,'155',,
3.094616,'225',,
3.094876,'142',,
3.095136,'176',,
3.095396,'139',,
3.095656,'19',,
3.095916,'140',,
3.096176,'4',,
3.096436,'8',,
3.116815,L,,
3.117075,C,,
3.117335,S,,
3.117595,A,,
3.117855,'250',,
3.118115,Q,,
3.118375,'160',,
3.118636,'0',,
3.118895,\n,,
3.119156,'0',,
3.119416,'1',,
3.119676,'0',,
3.119936,\n,,
3.120196,'248',,
3.120456,'31',,
3.120716,H,,
3.120976,'31',,
3.121236,'255',,
3.121496,'254',,
3.121756,'0',,
3.122016,'0',,
3.122276,'0',,
3.122536,'169',,
3.122796,'154',,
3.123056,'169',,
3.123316,'155',,
3.123576,'225',,
3.123836,'142',,
3.124096,'176',,
3.124356,'139',,
3.124616,'19',,
3.124876,'140',,
3.125136,'4',,
3.125396,'8',,
3.347757,L,,
3.348017,C,,
3.348277,S,,
3.348537,A,,
3.348797,'250',,
3.349057,Q,,
3.349317,'160',,
3.349577,'0',,
3.349837,\n,,
3.350097,'0',,
3.350357,'1',,
3.350617,'0',,
3.350877,\n,,
3.351137,'248',,
3.351397,'31',,
3.351657,H,,
3.351917,'31',,
3.352177,'255',,
3.352438,'252',,
3.352698,'0',,
3.352958,'0',,
3.353218,'0',,
3.353478,'169',,
3.353738,'154',,
3.353998,'169',,
3.354258,'155',,
3.354518,'225',,
3.354778,'142',,
3.355038,'176',,
3.355298,'139',,
3.355558,'19',,
3.355818,'140',,
3.356078,'4',,
3.356338,'8',,
3.417015,L,,
3.417275,C,,
3.417535,S,,
3.417795,A,,
3.418055,'250',,
3.418315,Q,,
3.418575,'160',,
3.418835,'0',,
3.419095,\n,,
3.419355,'0',,
3.419615,'1',,
3.419875,'0',,
3.420135,\n,,
3.420395,'248',,
3.420655,'31',,
3.420915,H,,
3.421175,'31',,
3.421435,'255',,
3.421695,'252',,
3.421955,'0',,
3.422215,'0',,
3.422475,'0',,
3.422735,'169',,
3.422995,'154',,
3.423255,'169',,
3.423516,'155',,
3.423776,'225',,
3.424036,'142',,
3.424296,'176',,
3.424556,'139',,
3.424816,'19',,
3.425076,'140',,
3.425336,'4',,
3.425596,'8',,
3.537912,L,,
3.538172,C,,
3.538432,S,,
3.538692,A,,
3.538952,'250',,
3.539212,Q,,
3.539472,'160',,
3.539732,'0',,
3.539992,\n,,
3.540252,'0',,
3.540512,'1',,
3.540772,'0',,
3.541032,\n,,
3.541293,'248',,
3.541552,'31',,
3.541813,H,,
3.542073,'31',,
3.542333,'255',,
3.542593,'254',,
3.542853,'0',,
3.543113,'0',,
3.543373,'0',,
3.543633,'169',,
3.543893,'154',,
3.544153,'169',,
3.544413,'155',,
3.544673,'225',,
3.544933,'142',,
3.545193,'176',,
3.545453,'139',,
3.545713,'19',,
3.545973,'140',,
3.546233,'4',,
3.546493,'8',,
3.647909,L,,
3.648169,C,,
3.64843,S,,
3.64869,A,,
3.64895,'250',,
3.64921,Q,,
3.64947,'160',,
3.64973,'0',,
3.64999,\n,,
3.65025,'0',,
3.65051,'1',,
3.65077,'0',,
3.65103,\n,,
3.65129,'248',,
3.65155,'31',,
3.65181,H,,
3.65207,'31',,
3.65233,'255',,
3.65259,'252',,
3.65285,'0',,
3.65311,'0',,
3.65337,'0',,
3.65363,'169',,
3.65389,'154',,
3.65415,'169',,
3.65441,'155',,
3.65467,'225',,
3.65493,'142',,
3.65519,'176',,
3.65545,'139',,
3.65571,'19',,
3.65597,'140',,
3.65623,'4',,
3.65649,'8',,
3.667912,L,,
3.668172,C,,
3.668432,S,,
3.668692,A,,
3.668952,'250',,
3.669212,Q,,
3.669472,'160',,
3.669732,'0',,
3.669992,\n,,
3.670252,'0',,
3.670512,'1',,
3.670772,'0',,
3.671032,\n,,
3.671292,'248',,
3.671552,'31',,
3.671812,H,,
3.672072,'31',,
3.672332,'255',,
3.672592,'254',,
3.672852,'0',,
3.673112,'0',,
3.673372,'0',,
3.673633,'169',,
3.673893,'154',,
3.674153,'169',,
3.674413,'155',,
3.674673,'225',,
3.674933,'142',,
3.675193,'176',,
3.675453,'139',,
3.675713,'19',,
3.675973,'140',,
3.676233,'4',,
3.676493,'8',,
3.71777,L,,
3.71803,C,,
3.71829,S,,
3.71855,A,,
3.71881,'250',,
3.71907,Q,,
3.71933,'160',,
3.71959,'0',,
3.71985,\n,,
3.72011,'0',,
3.72037,'1',,
3.720631,'0',,
3.720891,\n,,
3.721151,'248',,
3.721411,'31',,
3.721671,H,,
3.721931,'31',,
3.722191,'255',,
3.722451,'252',,
3.722711,'0',,
3.722971,'0',,
3.723231,'0',,
3.723491,'169',,
3.723751,'154',,
3.724011,'169',,
3.724271,'155',,
3.724531,'225',,
3.724791,'142',,
3.725051,'176',,
3.725311,'139',,
3.725571,'19',,
3.725831,'140',,
3.726091,'4',,
3.726351,'8',,
3.817804,L,,
3.818064,C,,
3.818324,S,,
3.818584,A,,
3.818844,'250',,
3.819104,Q,,
3.819364,'160',,
3.819624,'0',,
3.819884,\n,,
3.820144,'0',,
3.820404,'1',,
3.820664,'0',,
3.820924,\n,,
3.821184,'248',,
3.821444,'31',,
3.821704,H,,
3.821964,'31',,
3.822224,'255',,
3.822484,'254',,
3.822744,'0',,
3.823004,'0',,
3.823264,'0',,
3.823524,'169',,
3.823784,'154',,
3.824044,'169',,
3.824304,'155',,
3.824564,'225',,
3.824824,'142',,
3.825084,'176',,
3.825344,'139',,
3.825604,'19',,
3.825864,'140',,
3.826125,'4',,
3.826385,'8',,
3.86781,L,,
3.86807,C,,
3.86833,S,,
3.86859,A,,
3.86885,'250',,
3.86911,Q,,
3.86937,'160',,
3.86963,'0',,
3.86989,\n,,
3.87015,'0',,
3.87041,'1',,
3.87067,'0',,
3.87093,\n,,
3.87119,'248',,
3.87145,'31',,
3.87171,H,,
3.87197,'31',,
3.87223,'255',,
3.87249,'252',,
3.87275,'0',,
3.87301,'0',,
3.87327,'0',,
3.87353,'169',,
3.87379,'154',,
3.87405,'169',,
3.874311,'155',,
3.874571,'225',,
3.874831,'142',,
3.875091,'176',,
3.875351,'139',,
3.875611,'19',,
3.875871,'140',,
3.876131,'4',,
3.876391,'8',,
4.017076,L,,
4.017336,C,,
4.017596,S,,
4.017856,A,,
4.018116,'250',,
4.018376,Q,,
4.018636,'160',,
4.018896,'0',,
4.019156,\n,,
4.019416,'0',,
4.019676,'1',,
4.019936,'0',,
4.020196,\n,,
4.020456,'248',,
4.020716,'31',,
4.020976,H,,
4.021236,'31',,
4.021496,'255',,
4.021756,'252',,
4.022016,'0',,
4.022276,'0',,
4.022536,'0',,
4.022797,'169',,
4.023057,'154',,
4.023317,'169',,
4.023577,'155',,
4.023837,'225',,
4.024097,'142',,
4.024357,'176',,
4.024617,'139',,
4.024877,'19',,
4.025137,'140',,
4.025397,'4',,
4.025657,'8',,
4.317828,L,,
4.318088,C,,
4.318348,S,,
4.318608,A,,
4.318868,'250',,
4.319128,Q,,
4.319388,'160',,
4.319648,'0',,
4.319908,\n,,
4.320168,'0',,
4.320428,'1',,
4.320688,'0',,
4.320948,\n,,
4.321208,'248',,
4.321468,'31',,
4.321728,H,,
4.321988,'31',,
4.322249,'255',,
4.322509,'254',,
4.322769,'0',,
4.323029,'0',,
4.323289,'0',,
4.323549,'169',,
4.323809,'154',,
4.324069,'169',,
4.324329,'155',,
4.324589,'225',,
4.324849,'142',,
4.325109,'176',,
4.325369,'139',,
4.325629,'19',,
4.325889,'140',,
4.326149,'4',,
4.326409,'8',,
4.617134,L,,
4.617394,C,,
4.617654,S,,
4.617914,A,,
4.618174,'250',,
4.618434,Q,,
4.618694,'160',,
4.618954,'0',,
4.619214,\n,,
4.619474,'0',,
4.619734,'1',,
4.619994,'0',,
4.620254,\n,,
4.620514,'248',,
4.620774,'31',,
4.621034,H,,
4.621294,'31',,
4.621554,'255',,
4.621814,'254',,
4.622074,'0',,
4.622334,'0',,
4.622594,'0',,
4.622854,'169',,
4.623114,'154',,
4.623374,'169',,
4.623634,'155',,
4.623894,'225',,
4.624154,'142',,
4.624415,'176',,
4.624675,'139',,
4.624935,'19',,
4.625195,'140',,
4.625455,'4',,
4.625715,'8',,
4.916992,L,,
4.917252,C,,
4.917512,S,,
4.917772,A,,
4.918032,'250',,
4.918292,Q,,
4.918552,'160',,
4.918812,'0',,
4.919072,\n,,
4.919332,'0',,
4.919592,'1',,
4.919852,'0',,
4.920112,\n,,
4.920372,'248',,
4.920632,'31',,
4.920892,H,,
4.921152,'31',,
4.921412,'255',,
4.921673,'254',,
4.921933,'0',,
4.922193,'0',,
4.922453,'0',,
4.922713,'169',,
4.922973,'154',,
4.923233,'169',,
4.923493,'155',,
4.923753,'225',,
4.924013,'142',,
4.924273,'176',,
4.924533,'139',,
4.924793,'19',,
4.925053,'140',,
4.925313,'4',,
4.925573,'8',,
