Time [s],Value,Parity Error,Framing Error
0.247091,L,,
0.247351,C,,
0.247611,S,,
0.247871,A,,
0.248131,'250',,
0.248391,Q,,
0.248651,'160',,
0.248911,'0',,
0.249171,\n,,
0.249431,h,,
0.249691,'29',,
0.249951,'232',,
0.250211,'30',,
0.250471,'185',,
0.250731,'155',,
0.250991,'232',,
0.251251,'23',,
0.251511,'255',,
0.251771,'0',,
0.252031,'0',,
0.252291,'0',,
0.252551,'0',,
0.252811,'169',,
0.253071,'154',,
0.253331,a,,
0.253591,'141',,
0.253852,'160',,
0.254112,'128',,
0.254372,'176',,
0.254632,'139',,
0.254892,'19',,
0.255152,'140',,
0.255412,'4',,
0.255672,'8',,
0.546949,L,,
0.547209,C,,
0.547469,S,,
0.547729,A,,
0.547989,'250',,
0.548249,Q,,
0.548509,'160',,
0.548769,'0',,
0.549029,\n,,
0.549289,h,,
0.549549,'29',,
0.549809,'232',,
0.550069,'30',,
0.550329,'185',,
0.550589,'155',,
0.550849,'232',,
0.551109,'23',,
0.551369,'255',,
0.551629,'0',,
0.55189,'0',,
0.55215,'0',,
0.55241,'0',,
0.55267,'169',,
0.55293,'154',,
0.55319,a,,
0.55345,'141',,
0.55371,'160',,
0.55397,'128',,
0.55423,'176',,
0.55449,'139',,
0.55475,'19',,
0.55501,'140',,
0.55527,'4',,
0.55553,'8',,
0.84715,L,,
0.84741,C,,
0.84767,S,,
0.84793,A,,
0.84819,'250',,
0.84845,Q,,
0.84871,'160',,
0.84897,'0',,
0.84923,\n,,
0.84949,h,,
0.84975,'29',,
0.85001,'232',,
0.85027,'30',,
0.85053,'185',,
0.850791,'155',,
0.851051,'232',,
0.851311,'23',,
0.851571,'255',,
0.851831,'0',,
0.852091,'0',,
0.852351,'0',,
0.852611,'0',,
0.852871,'169',,
0.853131,'154',,
0.853391,a,,
0.853651,'141',,
0.853911,'160',,
0.854171,'128',,
0.854431,'176',,
0.854691,'139',,
0.854951,'19',,
0.855211,'140',,
0.855471,'4',,
0.855731,'8',,
1.147007,L,,
1.147267,C,,
1.147527,S,,
1.147787,A,,
1.148047,'250',,
1.148307,Q,,
1.148567,'160',,
1.148827,'0',,
1.149087,\n,,
1.149347,h,,
1.149607,'29',,
1.149867,'232',,
1.150127,'30',,
1.150387,'185',,
1.150647,'155',,
1.150907,'232',,
1.151167,'23',,
1.151427,'255',,
1.151687,'0',,
1.151947,'0',,
1.152207,'0',,
1.152467,'0',,
1.152727,'169',,
1.152987,'154',,
1.153247,a,,
1.153507,'141',,
1.153767,'160',,
1.154027,'128',,
1.154287,'176',,
1.154547,'139',,
1.154807,'19',,
1.155067,'140',,
1.155328,'4',,
1.155588,'8',,
1.447209,L,,
1.447469,C,,
1.44773,S,,
1.44799,A,,
1.44825,'250',,
1.44851,Q,,
1.44877,'160',,
1.44903,'0',,
1.44929,\n,,
1.44955,h,,
1.44981,'29',,
1.45007,'232',,
1.45033,'30',,
1.45059,'185',,
1.45085,'155',,
1.45111,'232',,
1.45137,'23',,
1.45163,'255',,
1.45189,'0',,
1.45215,'0',,
1.45241,'0',,
1.45267,'0',,
1.45293,'169',,
1.45319,'154',,
1.45345,a,,
1.45371,'141',,
1.45397,'160',,
1.45423,'128',,
1.45449,'176',,
1.45475,'139',,
1.45501,'19',,
1.45527,'140',,
1.45553,'4',,
1.45579,'8',,
1.747066,L,,
1.747326,C,,
1.747586,S,,
1.747846,A,,
1.748106,'250',,
1.748366,Q,,
1.748626,'160',,
1.748886,'0',,
1.749146,\n,,
1.749406,h,,
1.749666,'29',,
1.749926,'232',,
1.750186,'30',,
1.750446,'185',,
1.750706,'155',,
1.750966,'232',,
1.751226,'23',,
1.751486,'255',,
1.751746,'0',,
1.752006,'0',,
1.752266,'0',,
1.752527,'0',,
1.752787,'169',,
1.753047,'154',,
1.753307,a,,
1.753567,'141',,
1.753827,'160',,
1.754087,'128',,
1.754347,'176',,
1.754607,'139',,
1.754867,'19',,
1.755127,'140',,
1.755387,'4',,
1.755647,'8',,
2.047267,L,,
2.047527,C,,
2.047787,S,,
2.048047,A,,
2.048307,'250',,
2.048567,Q,,
2.048827,'160',,
2.049087,'0',,
2.049347,\n,,
2.049607,h,,
2.049867,'29',,
2.050127,'232',,
2.050387,'30',,
2.050647,'185',,
2.050907,'155',,
2.051168,'232',,
2.051428,'23',,
2.051688,'255',,
2.051948,'0',,
2.052208,'0',,
2.052468,'0',,
2.052728,'0',,
2.052988,'169',,
2.053248,'154',,
2.053508,a,,
2.053768,'141',,
2.054028,'160',,
2.054288,'128',,
2.054548,'176',,
2.054808,'139',,
2.055068,'19',,
2.055328,'140',,
2.055588,'4',,
2.055848,'8',,
2.208182,L,,
2.208442,C,,
2.208702,S,,
2.208962,A,,
2.209222,'250',,
2.209482,Q,,
2.209742,'160',,
2.210002,'0',,
2.210262,\n,,
2.210523,h,,
2.210783,'29',,
2.211043,'232',,
2.211303,'30',,
2.211563,'185',,
2.211823,'155',,
2.212083,'232',,
2.212343,'23',,
2.212603,'255',,
2.212863,'16',,
2.213123,'0',,
2.213383,'0',,
2.213643,'0',,
2.213903,'169',,
2.214163,'154',,
2.214423,a,,
2.214683,'141',,
2.214943,'160',,
2.215203,'128',,
2.215463,'176',,
2.215723,'139',,
2.215983,'19',,
2.216243,'140',,
2.216503,'4',,
2.216763,'8',,
2.278189,L,,
2.278449,C,,
2.278709,S,,
2.278969,A,,
2.279229,'250',,
2.279489,Q,,
2.279749,'160',,
2.280009,'0',,
2.280269,\n,,
2.28053,h,,
2.28079,'29',,
2.28105,'232',,
2.28131,'30',,
2.28157,'185',,
2.28183,'155',,
2.28209,'232',,
2.28235,'23',,
2.28261,'255',,
2.28287,'0',,
2.28313,'0',,
2.28339,'0',,
2.28365,'0',,
2.28391,'169',,
2.28417,'154',,
2.28443,a,,
2.28469,'141',,
2.28495,'160',,
2.28521,'128',,
2.28547,'176',,
2.28573,'139',,
2.28599,'19',,
2.28625,'140',,
2.28651,'4',,
2.28677,'8',,
2.347125,L,,
2.347385,C,,
2.347645,S,,
2.347905,A,,
2.348165,'250',,
2.348425,Q,,
2.348685,'160',,
2.348945,'0',,
2.349205,\n,,
2.349466,h,,
2.349726,'29',,
2.349986,'232',,
2.350246,'30',,
2.350506,'185',,
2.350766,'155',,
2.351026,'232',,
2.351286,'23',,
2.351546,'255',,
2.351806,'0',,
2.352066,'0',,
2.352326,'0',,
2.352586,'0',,
2.352846,'169',,
2.353106,'154',,
2.353366,a,,
2.353626,'141',,
2.353886,'160',,
2.354146,'128',,
2.354406,'176',,
2.354666,'139',,
2.354926,'19',,
2.355186,'140',,
2.355446,'4',,
2.355706,'8',,
2.388078,L,,
2.388338,C,,
2.388598,S,,
2.388858,A,,
2.389118,'250',,
2.389378,Q,,
2.389638,'160',,
2.389898,'0',,
2.390158,\n,,
2.390418,h,,
2.390678,'29',,
2.390938,'232',,
2.391198,'30',,
2.391458,'185',,
2.391718,'155',,
2.391978,'232',,
2.392238,'23',,
2.392498,'255',,
2.392758,'16',,
2.393018,'0',,
2.393278,'0',,
2.393538,'0',,
2.393798,'169',,
2.394058,'154',,
2.394318,a,,
2.394578,'141',,
2.394838,'160',,
2.395098,'128',,
2.395358,'176',,
2.395618,'139',,
2.395878,'19',,
2.396138,'140',,
2.396398,'4',,
2.396659,'8',,
2.448082,L,,
2.448342,C,,
2.448602,S,,
2.448862,A,,
2.449122,'250',,
2.449382,Q,,
2.449642,'160',,
2.449902,'0',,
2.450162,\n,,
2.450422,h,,
2.450682,'29',,
2.450942,'232',,
2.451202,'30',,
2.451462,'185',,
2.451722,'155',,
2.451982,'232',,
2.452242,'23',,
2.452502,'255',,
2.452762,'0',,
2.453022,'0',,
2.453282,'0',,
2.453542,'0',,
2.453802,'169',,
2.454062,'154',,
2.454322,a,,
2.454582,'141',,
2.454843,'160',,
2.455103,'128',,
2.455363,'176',,
2.455623,'139',,
2.455883,'19',,
2.456143,'140',,
2.456403,'4',,
2.456663,'8',,
2.458085,L,,
2.458345,C,,
2.458605,S,,
2.458865,A,,
2.459125,'250',,
2.459385,Q,,
2.459645,'160',,
2.459905,'0',,
2.460165,\n,,
2.460425,h,,
2.460685,'29',,
2.460945,'232',,
2.461205,'30',,
2.461465,'185',,
2.461725,'155',,
2.461985,'232',,
2.462245,'23',,
2.462505,'255',,
2.462765,'16',,
2.463025,'0',,
2.463285,'0',,
2.463545,'0',,
2.463805,'169',,
2.464065,'154',,
2.464325,a,,
2.464585,'141',,
2.464845,'160',,
2.465105,'128',,
2.465365,'176',,
2.465625,'139',,
2.465885,'19',,
2.466145,'140',,
2.466405,'4',,
2.466666,'8',,
2.508089,L,,
2.508349,C,,
2.508609,S,,
2.508869,A,,
2.509129,'250',,
2.509389,Q,,
2.509649,'160',,
2.509909,'0',,
2.510169,\n,,
2.510429,h,,
2.510689,'29',,
2.51095,'232',,
2.51121,'30',,
2.51147,'185',,
2.51173,'155',,
2.51199,'232',,
2.51225,'23',,
2.51251,'255',,
2.51277,'0',,
2.51303,'0',,
2.51329,'0',,
2.51355,'0',,
2.51381,'169',,
2.51407,'154',,
2.51433,a,,
2.51459,'141',,
2.51485,'160',,
2.51511,'128',,
2.51537,'176',,
2.51563,'139',,
2.51589,'19',,
2.51615,'140',,
2.51641,'4',,
2.51667,'8',,
2.647325,L,,
2.647585,C,,
2.647845,S,,
2.648105,A,,
2.648365,'250',,
2.648625,Q,,
2.648885,'160',,
2.649145,'0',,
2.649405,\n,,
2.649665,h,,
2.649925,'29',,
2.650185,'232',,
2.650445,'30',,
2.650705,'185',,
2.650965,'155',,
2.651225,'232',,
2.651485,'23',,
2.651745,'255',,
2.652005,'0',,
2.652265,'0',,
2.652525,'0',,
2.652785,'0',,
2.653045,'169',,
2.653305,'154',,
2.653565,a,,
2.653825,'141',,
2.654085,'160',,
2.654345,'128',,
2.654605,'176',,
2.654866,'139',,
2.655126,'19',,
2.655386,'140',,
2.655646,'4',,
2.655906,'8',,
2.748237,L,,
2.748497,C,,
2.748757,S,,
2.749017,A,,
2.749278,'250',,
2.749538,Q,,
2.749798,'160',,
2.750058,'0',,
2.750318,\n,,
2.750578,h,,
2.750838,'29',,
2.751098,'232',,
2.751358,'30',,
2.751618,'185',,
2.751878,'155',,
2.752138,'232',,
2.752398,'23',,
2.752658,'255',,
2.752918,'16',,
2.753178,'0',,
2.753438,'0',,
2.753698,'0',,
2.753958,'169',,
2.754218,'154',,
2.754478,a,,
2.754738,'141',,
2.754998,'160',,
2.755258,'128',,
2.755518,'176',,
2.755778,'139',,
2.756038,'19',,
2.756298,'140',,
2.756558,'4',,
2.756818,'8',,
2.908252,L,,
2.908512,C,,
2.908772,S,,
2.909032,A,,
2.909292,'250',,
2.909552,Q,,
2.909812,'160',,
2.910072,'0',,
2.910332,\n,,
2.910592,h,,
2.910852,'29',,
2.911113,'232',,
2.911373,'30',,
2.911633,'185',,
2.911893,'155',,
2.912153,'232',,
2.912413,'23',,
2.912673,'255',,
2.912933,'0',,
2.913193,'0',,
2.913453,'0',,
2.913713,'0',,
2.913973,'169',,
2.914233,'154',,
2.914493,a,,
2.914753,'141',,
2.915013,'160',,
2.915273,'128',,
2.915533,'176',,
2.915793,'139',,
2.916053,'19',,
2.916313,'140',,
2.916573,'4',,
2.916833,'8',,
2.947183,L,,
2.947443,C,,
2.947703,S,,
2.947963,A,,
2.948223,'250',,
2.948483,Q,,
2.948743,'160',,
2.949003,'0',,
2.949263,\n,,
2.949523,h,,
2.949783,'29',,
2.950043,'232',,
2.950303,'30',,
2.950563,'185',,
2.950823,'155',,
2.951083,'232',,
2.951343,'23',,
2.951603,'255',,
2.951863,'0',,
2.952123,'0',,
2.952383,'0',,
2.952643,'0',,
2.952904,'169',,
2.953164,'154',,
2.953424,a,,
2.953684,'141',,
2.953944,'160',,
2.954204,'128',,
2.954464,'176',,
2.954724,'139',,
2.954984,'19',,
2.955244,'140',,
2.955504,'4',,
2.955764,'8',,
3.247386,L,,
3.247646,C,,
3.247906,S,,
3.248166,A,,
3.248426,'250',,
3.248686,Q,,
3.248946,'160',,
3.249206,'0',,
3.249466,\n,,
3.249726,h,,
3.249986,'29',,
3.250246,'232',,
3.250506,'30',,
3.250766,'185',,
3.251026,'155',,
3.251286,'232',,
3.251546,'23',,
3.251806,'255',,
3.252066,'0',,
3.252326,'0',,
3.252586,'0',,
3.252846,'0',,
3.253106,'169',,
3.253366,'154',,
3.253626,a,,
3.253886,'141',,
3.254146,'160',,
3.254406,'128',,
3.254666,'176',,
3.254926,'139',,
3.255186,'19',,
3.255446,'140',,
3.255707,'4',,
3.255967,'8',,
3.547244,L,,
3.547504,C,,
3.547764,S,,
3.548024,A,,
3.548284,'250',,
3.548544,Q,,
3.548804,'160',,
3.549064,'0',,
3.549324,\n,,
3.549584,h,,
3.549844,'29',,
3.550104,'232',,
3.550364,'30',,
3.550624,'185',,
3.550884,'155',,
3.551144,'232',,
3.551404,'23',,
3.551664,'255',,
3.551924,'0',,
3.552184,'0',,
3.552444,'0',,
3.552704,'0',,
3.552964,'169',,
3.553224,'154',,
3.553484,a,,
3.553745,'141',,
3.554005,'160',,
3.554265,'128',,
3.554525,'176',,
3.554785,'139',,
3.555045,'19',,
3.555305,'140',,
3.555565,'4',,
3.555825,'8',,
3.847443,L,,
3.847703,C,,
3.847963,S,,
3.848223,A,,
3.848483,'250',,
3.848743,Q,,
3.849003,'160',,
3.849263,'0',,
3.849524,\n,,
3.849784,h,,
3.850044,'29',,
3.850304,'232',,
3.850564,'30',,
3.850824,'185',,
3.851084,'155',,
3.851344,'232',,
3.851604,'23',,
3.851864,'255',,
3.852124,'0',,
3.852384,'0',,
3.852644,'0',,
3.852904,'0',,
3.853164,'169',,
3.853424,'154',,
3.853684,a,,
3.853944,'141',,
3.854204,'160',,
3.854464,'128',,
3.854724,'176',,
3.854984,'139',,
3.855244,'19',,
3.855504,'140',,
3.855764,'4',,
3.856024,'8',,
4.147302,L,,
4.147562,C,,
4.147822,S,,
4.148082,A,,
4.148342,'250',,
4.148602,Q,,
4.148862,'160',,
4.149122,'0',,
4.149382,\n,,
4.149642,h,,
4.149902,'29',,
4.150162,'232',,
4.150422,'30',,
4.150682,'185',,
4.150942,'155',,
4.151202,'232',,
4.151462,'23',,
4.151722,'255',,
4.151982,'0',,
4.152242,'0',,
4.152502,'0',,
4.152762,'0',,
4.153022,'169',,
4.153282,'154',,
4.153542,a,,
4.153802,'141',,
4.154062,'160',,
4.154322,'128',,
4.154582,'176',,
4.154842,'139',,
4.155102,'19',,
4.155362,'140',,
4.155622,'4',,
4.155882,'8',,
4.447503,L,,
4.447763,C,,
4.448023,S,,
4.448283,A,,
4.448543,'250',,
4.448803,Q,,
4.449063,'160',,
4.449323,'0',,
4.449583,\n,,
4.449843,h,,
4.450103,'29',,
4.450363,'232',,
4.450623,'30',,
4.450883,'185',,
4.451143,'155',,
4.451403,'232',,
4.451663,'23',,
4.451923,'255',,
4.452183,'0',,
4.452443,'0',,
4.452703,'0',,
4.452963,'0',,
4.453223,'169',,
4.453483,'154',,
4.453743,a,,
4.454003,'141',,
4.454263,'160',,
4.454523,'128',,
4.454783,'176',,
4.455043,'139',,
4.455303,'19',,
4.455563,'140',,
4.455823,'4',,
4.456083,'8',,
4.747361,L,,
4.747621,C,,
4.747881,S,,
4.748141,A,,
4.748401,'250',,
4.748661,Q,,
4.748921,'160',,
4.749181,'0',,
4.749441,\n,,
4.749701,h,,
4.749961,'29',,
4.750221,'232',,
4.750481,'30',,
4.750741,'185',,
4.751001,'155',,
4.751261,'232',,
4.751521,'23',,
4.751781,'255',,
4.752041,'0',,
4.752301,'0',,
4.752561,'0',,
4.752821,'0',,
4.753081,'169',,
4.753341,'154',,
4.753601,a,,
4.753861,'141',,
4.754121,'160',,
4.754382,'128',,
4.754642,'176',,
4.754902,'139',,
4.755162,'19',,
4.755422,'140',,
4.755682,'4',,
4.755942,'8',,
5.047562,L,,
5.047822,C,,
5.048082,S,,
5.048342,A,,
5.048602,'250',,
5.048862,Q,,
5.049122,'160',,
5.049382,'0',,
5.049642,\n,,
5.049902,h,,
5.050162,'29',,
5.050422,'232',,
5.050682,'30',,
5.050942,'185',,
5.051202,'155',,
5.051462,'232',,
5.051722,'23',,
5.051982,'255',,
5.052242,'0',,
5.052502,'0',,
5.052762,'0',,
5.053022,'0',,
5.053282,'169',,
5.053542,'154',,
5.053803,a,,
5.054063,'141',,
5.054323,'160',,
5.054583,'128',,
5.054843,'176',,
5.055103,'139',,
5.055363,'19',,
5.055623,'140',,
5.055883,'4',,
5.056143,'8',,
5.34742,L,,
5.34768,C,,
5.34794,S,,
5.3482,A,,
5.34846,'250',,
5.34872,Q,,
5.34898,'160',,
5.34924,'0',,
5.3495,\n,,
5.34976,h,,
5.35002,'29',,
5.35028,'232',,
5.35054,'30',,
5.3508,'185',,
5.35106,'155',,
5.35132,'232',,
5.351581,'23',,
5.351841,'255',,
5.352101,'0',,
5.352361,'0',,
5.352621,'0',,
5.352881,'0',,
5.353141,'169',,
5.353401,'154',,
5.353661,a,,
5.353921,'141',,
5.354181,'160',,
5.354441,'128',,
5.354701,'176',,
5.354961,'139',,
5.355221,'19',,
5.355481,'140',,
5.355741,'4',,
5.356001,'8',,
5.647623,L,,
5.647883,C,,
5.648143,S,,
5.648403,A,,
5.648663,'250',,
5.648923,Q,,
5.649183,'160',,
5.649443,'0',,
5.649703,\n,,
5.649963,h,,
5.650223,'29',,
5.650483,'232',,
5.650743,'30',,
5.651003,'185',,
5.651263,'155',,
5.651523,'232',,
5.651783,'23',,
5.652043,'255',,
5.652303,'0',,
5.652563,'0',,
5.652823,'0',,
5.653083,'0',,
5.653343,'169',,
5.653603,'154',,
5.653863,a,,
5.654123,'141',,
5.654383,'160',,
5.654644,'128',,
5.654904,'176',,
5.655164,'139',,
5.655424,'19',,
5.655684,'140',,
5.655944,'4',,
5.656204,'8',,
5.947478,L,,
5.947738,C,,
5.947998,S,,
5.948258,A,,
5.948518,'250',,
5.948778,Q,,
5.949038,'160',,
5.949298,'0',,
5.949558,\n,,
5.949818,h,,
5.950078,'29',,
5.950338,'232',,
5.950598,'30',,
5.950858,'185',,
5.951118,'155',,
5.951378,'232',,
5.951638,'23',,
5.951898,'255',,
5.952158,'0',,
5.952418,'0',,
5.952678,'0',,
5.952938,'0',,
5.953198,'169',,
5.953458,'154',,
5.953718,a,,
5.953978,'141',,
5.954238,'160',,
5.954498,'128',,
5.954758,'176',,
5.955018,'139',,
5.955278,'19',,
5.955539,'140',,
5.955799,'4',,
5.956059,'8',,
6.247679,L,,
6.247939,C,,
6.248199,S,,
6.248459,A,,
6.248719,'250',,
6.248979,Q,,
6.249239,'160',,
6.249499,'0',,
6.249759,\n,,
6.250019,h,,
6.250279,'29',,
6.250539,'232',,
6.250799,'30',,
6.251059,'185',,
6.251319,'155',,
6.251579,'232',,
6.251839,'23',,
6.252099,'255',,
6.252359,'0',,
6.252619,'0',,
6.252879,'0',,
6.253139,'0',,
6.253399,'169',,
6.253659,'154',,
6.253919,a,,
6.254179,'141',,
6.25444,'160',,
6.2547,'128',,
6.25496,'176',,
6.25522,'139',,
6.25548,'19',,
6.25574,'140',,
6.256,'4',,
6.25626,'8',,
6.547537,L,,
6.547797,C,,
6.548057,S,,
6.548317,A,,
6.548577,'250',,
6.548837,Q,,
6.549097,'160',,
6.549357,'0',,
6.549617,\n,,
6.549877,h,,
6.550137,'29',,
6.550397,'232',,
6.550657,'30',,
6.550917,'185',,
6.551177,'155',,
6.551437,'232',,
6.551697,'23',,
6.551957,'255',,
6.552218,'0',,
6.552478,'0',,
6.552738,'0',,
6.552998,'0',,
6.553258,'169',,
6.553518,'154',,
6.553778,a,,
6.554038,'141',,
6.554298,'160',,
6.554558,'128',,
6.554818,'176',,
6.555078,'139',,
6.555338,'19',,
6.555598,'140',,
6.555858,'4',,
6.556118,'8',,
6.847738,L,,
6.847998,C,,
6.848258,S,,
6.848518,A,,
6.848778,'250',,
6.849038,Q,,
6.849298,'160',,
6.849558,'0',,
6.849818,\n,,
6.850078,h,,
6.850338,'29',,
6.850598,'232',,
6.850858,'30',,
6.851118,'185',,
6.851378,'155',,
6.851638,'232',,
6.851899,'23',,
6.852159,'255',,
6.852419,'0',,
6.852679,'0',,
6.852939,'0',,
6.853199,'0',,
6.853459,'169',,
6.853719,'154',,
6.853979,a,,
6.854239,'141',,
6.854499,'160',,
6.854759,'128',,
6.855019,'176',,
6.855279,'139',,
6.855539,'19',,
6.855799,'140',,
6.856059,'4',,
6.856319,'8',,
7.147596,L,,
7.147856,C,,
7.148116,S,,
7.148376,A,,
7.148636,'250',,
7.148896,Q,,
7.149156,'160',,
7.149417,'0',,
7.149677,\n,,
7.149937,h,,
7.150197,'29',,
7.150457,'232',,
7.150717,'30',,
7.150977,'185',,
7.151237,'155',,
7.151497,'232',,
7.151757,'23',,
7.152017,'255',,
7.152277,'0',,
7.152537,'0',,
7.152797,'0',,
7.153057,'0',,
7.153317,'169',,
7.153577,'154',,
7.153837,a,,
7.154097,'141',,
7.154357,'160',,
7.154617,'128',,
7.154877,'176',,
7.155137,'139',,
7.155397,'19',,
7.155657,'140',,
7.155917,'4',,
7.156177,'8',,
7.447799,L,,
7.448059,C,,
7.448319,S,,
7.448579,A,,
7.448839,'250',,
7.449099,Q,,
7.449359,'160',,
7.449619,'0',,
7.449879,\n,,
7.450139,h,,
7.450399,'29',,
7.450659,'232',,
7.450919,'30',,
7.451179,'185',,
7.451439,'155',,
7.451699,'232',,
7.451959,'23',,
7.452219,'255',,
7.452479,'0',,
7.45274,'0',,
7.453,'0',,
7.45326,'0',,
7.45352,'169',,
7.45378,'154',,
7.45404,a,,
7.4543,'141',,
7.45456,'160',,
7.45482,'128',,
7.45508,'176',,
7.45534,'139',,
7.4556,'19',,
7.45586,'140',,
7.45612,'4',,
7.45638,'8',,
7.747656,L,,
7.747916,C,,
7.748176,S,,
7.748436,A,,
7.748696,'250',,
7.748956,Q,,
7.749216,'160',,
7.749476,'0',,
7.749736,\n,,
7.749996,h,,
7.750256,'29',,
7.750516,'232',,
7.750776,'30',,
7.751036,'185',,
7.751296,'155',,
7.751556,'232',,
7.751816,'23',,
7.752076,'255',,
7.752336,'0',,
7.752596,'0',,
7.752856,'0',,
7.753116,'0',,
7.753376,'169',,
7.753636,'154',,
7.753896,a,,
7.754156,'141',,
7.754416,'160',,
7.754676,'128',,
7.754936,'176',,
7.755196,'139',,
7.755456,'19',,
7.755716,'140',,
7.755976,'4',,
7.756236,'8',,
8.047857,L,,
8.048117,C,,
8.048377,S,,
8.048637,A,,
8.048897,'250',,
8.049157,Q,,
8.049417,'160',,
8.049677,'0',,
8.049937,\n,,
8.050197,h,,
8.050457,'29',,
8.050717,'232',,
8.050977,'30',,
8.051237,'185',,
8.051497,'155',,
8.051757,'232',,
8.052017,'23',,
8.052277,'255',,
8.052537,'0',,
8.052797,'0',,
8.053057,'0',,
8.053317,'0',,
8.053577,'169',,
8.053837,'154',,
8.054097,a,,
8.054357,'141',,
8.054617,'160',,
8.054877,'128',,
8.055137,'176',,
8.055397,'139',,
8.055657,'19',,
8.055917,'140',,
8.056177,'4',,
8.056438,'8',,
8.347715,L,,
8.347975,C,,
8.348235,S,,
8.348495,A,,
8.348755,'250',,
8.349015,Q,,
8.349275,'160',,
8.349535,'0',,
8.349795,\n,,
8.350055,h,,
8.350315,'29',,
8.350575,'232',,
8.350835,'30',,
8.351095,'185',,
8.351355,'155',,
8.351615,'232',,
8.351875,'23',,
8.352135,'255',,
8.352395,'0',,
8.352655,'0',,
8.352915,'0',,
8.353175,'0',,
8.353435,'169',,
8.353695,'154',,
8.353956,a,,
8.354216,'141',,
8.354476,'160',,
8.354736,'128',,
8.354996,'176',,
8.355256,'139',,
8.355516,'19',,
8.355776,'140',,
8.356036,'4',,
8.356296,'8',,
8.647916,L,,
8.648176,C,,
8.648436,S,,
8.648696,A,,
8.648956,'250',,
8.649216,Q,,
8.649476,'160',,
8.649736,'0',,
8.649996,\n,,
8.650256,h,,
8.650516,'29',,
8.650776,'232',,
8.651036,'30',,
8.651296,'185',,
8.651556,'155',,
8.651816,'232',,
8.652076,'23',,
8.652336,'255',,
8.652596,'0',,
8.652856,'0',,
8.653116,'0',,
8.653377,'0',,
8.653637,'169',,
8.653897,'154',,
8.654157,a,,
8.654417,'141',,
8.654677,'160',,
8.654937,'128',,
8.655197,'176',,
8.655457,'139',,
8.655717,'19',,
8.655977,'140',,
8.656237,'4',,
8.656497,'8',,
8.947773,L,,
8.948033,C,,
8.948293,S,,
8.948553,A,,
8.948813,'250',,
8.949073,Q,,
8.949333,'160',,
8.949593,'0',,
8.949853,\n,,
8.950113,h,,
8.950373,'29',,
8.950633,'232',,
8.950893,'30',,
8.951153,'185',,
8.951413,'155',,
8.951673,'232',,
8.951933,'23',,
8.952193,'255',,
8.952453,'0',,
8.952713,'0',,
8.952973,'0',,
8.953233,'0',,
8.953493,'169',,
8.953753,'154',,
8.954013,a,,
8.954273,'141',,
8.954533,'160',,
8.954793,'128',,
8.955053,'176',,
8.955313,'139',,
8.955573,'19',,
8.955833,'140',,
8.956093,'4',,
8.956353,'8',,
