Time [s],Value,Parity Error,Framing Error
0.061577,L,,
0.061837,C,,
0.062097,S,,
0.062357,A,,
0.062617,'250',,
0.062877,Q,,
0.063137,'160',,
0.063397,'0',,
0.063657,\n,,
0.063917,h,,
0.064177,'29',,
0.064437,'232',,
0.064697,'30',,
0.064957,'185',,
0.065217,'155',,
0.065477,'232',,
0.065737,'23',,
0.065997,'248',,
0.066257,'0',,
0.066517,'0',,
0.066777,'0',,
0.067037,'0',,
0.067297,'225',,
0.067557,'132',,
0.067818,a,,
0.068078,'141',,
0.068338,'160',,
0.068598,'128',,
0.068858,'176',,
0.069118,'139',,
0.069378,'19',,
0.069638,'140',,
0.069898,'4',,
0.070158,'8',,
0.361778,L,,
0.362038,C,,
0.362298,S,,
0.362558,A,,
0.362818,'250',,
0.363078,Q,,
0.363338,'160',,
0.363598,'0',,
0.363858,\n,,
0.364118,h,,
0.364378,'29',,
0.364638,'232',,
0.364898,'30',,
0.365158,'185',,
0.365418,'155',,
0.365678,'232',,
0.365939,'23',,
0.366198,'248',,
0.366459,'0',,
0.366719,'0',,
0.366979,'0',,
0.367239,'0',,
0.367499,'225',,
0.367759,'132',,
0.368019,a,,
0.368279,'141',,
0.368539,'160',,
0.368799,'128',,
0.369059,'176',,
0.369319,'139',,
0.369579,'19',,
0.369839,'140',,
0.370099,'4',,
0.370359,'8',,
0.661635,L,,
0.661895,C,,
0.662155,S,,
0.662415,A,,
0.662675,'250',,
0.662935,Q,,
0.663195,'160',,
0.663455,'0',,
0.663715,\n,,
0.663975,h,,
0.664235,'29',,
0.664495,'232',,
0.664755,'30',,
0.665015,'185',,
0.665275,'155',,
0.665535,'232',,
0.665795,'23',,
0.666055,'248',,
0.666315,'0',,
0.666575,'0',,
0.666835,'0',,
0.667095,'0',,
0.667355,'225',,
0.667615,'132',,
0.667875,a,,
0.668135,'141',,
0.668395,'160',,
0.668655,'128',,
0.668915,'176',,
0.669175,'139',,
0.669435,'19',,
0.669696,'140',,
0.669956,'4',,
0.670216,'8',,
0.961838,L,,
0.962098,C,,
0.962358,S,,
0.962618,A,,
0.962878,'250',,
0.963138,Q,,
0.963398,'160',,
0.963658,'0',,
0.963918,\n,,
0.964178,h,,
0.964438,'29',,
0.964698,'232',,
0.964958,'30',,
0.965218,'185',,
0.965478,'155',,
0.965738,'232',,
0.965998,'23',,
0.966258,'248',,
0.966518,'0',,
0.966778,'0',,
0.967038,'0',,
0.967298,'0',,
0.967558,'225',,
0.967818,'132',,
0.968078,a,,
0.968338,'141',,
0.968598,'160',,
0.968858,'128',,
0.969118,'176',,
0.969378,'139',,
0.969638,'19',,
0.969898,'140',,
0.970158,'4',,
0.970418,'8',,
1.164214,L,,
1.164474,C,,
1.164734,S,,
1.164994,A,,
1.165254,'250',,
1.165514,Q,,
1.165774,'160',,
1.166034,'0',,
1.166294,\n,,
1.166554,h,,
1.166814,'29',,
1.167074,'232',,
1.167334,'30',,
1.167594,'185',,
1.167854,'155',,
1.168114,'232',,
1.168374,'23',,
1.168634,'248',,
1.168894,'0',,
1.169154,'0',,
1.169414,'0',,
1.169674,'0',,
1.169934,'224',,
1.170194,'12',,
1.170454,a,,
1.170715,'141',,
1.170975,'160',,
1.171235,'128',,
1.171495,'176',,
1.171755,'139',,
1.172015,'19',,
1.172275,'140',,
1.172535,'4',,
1.172795,'8',,
1.184228,L,,
1.184488,C,,
1.184748,S,,
1.185008,A,,
1.185268,'250',,
1.185528,Q,,
1.185788,'160',,
1.186048,'0',,
1.186308,\n,,
1.186568,h,,
1.186828,'29',,
1.187088,'232',,
1.187348,'30',,
1.187608,'185',,
1.187868,'155',,
1.188128,'232',,
1.188388,'23',,
1.188648,'248',,
1.188908,'0',,
1.189168,'0',,
1.189428,'0',,
1.189688,'0',,
1.189948,a,,
1.190208,'140',,
1.190468,a,,
1.190728,'141',,
1.190988,'160',,
1.191248,'128',,
1.191508,'176',,
1.191768,'139',,
1.192029,'19',,
1.192289,'140',,
1.192549,'4',,
1.192809,'8',,
1.19438,L,,
1.19464,C,,
1.1949,S,,
1.19516,A,,
1.19542,'250',,
1.19568,Q,,
1.19594,'160',,
1.1962,'0',,
1.19646,\n,,
1.19672,h,,
1.19698,'29',,
1.19724,'232',,
1.1975,'30',,
1.19776,'185',,
1.19802,'155',,
1.19828,'232',,
1.198541,'23',,
1.198801,'248',,
1.199061,'0',,
1.199321,'0',,
1.199581,'0',,
1.199841,'0',,
1.200101,a,,
1.200361,'142',,
1.200621,a,,
1.200881,'141',,
1.201141,'160',,
1.201401,'128',,
1.201661,'176',,
1.201921,'139',,
1.202181,'19',,
1.202441,'140',,
1.202701,'4',,
1.202961,'8',,
1.204383,L,,
1.204643,C,,
1.204903,S,,
1.205163,A,,
1.205423,'250',,
1.205683,Q,,
1.205943,'160',,
1.206203,'0',,
1.206463,\n,,
1.206723,h,,
1.206983,'29',,
1.207243,'232',,
1.207503,'30',,
1.207763,'185',,
1.208023,'155',,
1.208283,'232',,
1.208543,'23',,
1.208803,'248',,
1.209063,'0',,
1.209323,'0',,
1.209583,'0',,
1.209844,'0',,
1.210104,'160',,
1.210364,'128',,
1.210624,a,,
1.210884,'141',,
1.211144,'160',,
1.211404,'128',,
1.211664,'176',,
1.211924,'139',,
1.212184,'19',,
1.212444,'140',,
1.212704,'4',,
1.212964,'8',,
1.214383,L,,
1.214643,C,,
1.214903,S,,
1.215163,A,,
1.215423,'250',,
1.215683,Q,,
1.215943,'160',,
1.216203,'0',,
1.216463,\n,,
1.216723,h,,
1.216983,'29',,
1.217243,'232',,
1.217503,'30',,
1.217763,'185',,
1.218023,'155',,
1.218283,'232',,
1.218543,'23',,
1.218803,'248',,
1.219063,'0',,
1.219323,'0',,
1.219583,'0',,
1.219843,'0',,
1.220103,'225',,
1.220363,'142',,
1.220623,a,,
1.220883,'141',,
1.221143,'160',,
1.221403,'128',,
1.221663,'176',,
1.221923,'139',,
1.222183,'19',,
1.222443,'140',,
1.222703,'4',,
1.222963,'8',,
1.224384,L,,
1.224644,C,,
1.224904,S,,
1.225164,A,,
1.225424,'250',,
1.225684,Q,,
1.225944,'160',,
1.226204,'0',,
1.226464,\n,,
1.226724,h,,
1.226984,'29',,
1.227244,'232',,
1.227504,'30',,
1.227764,'185',,
1.228024,'155',,
1.228284,'232',,
1.228544,'23',,
1.228804,'248',,
1.229064,'0',,
1.229324,'0',,
1.229584,'0',,
1.229844,'0',,
1.230104,'225',,
1.230364,'140',,
1.230624,a,,
1.230884,'141',,
1.231145,'160',,
1.231405,'128',,
1.231665,'176',,
1.231925,'139',,
1.232185,'19',,
1.232445,'140',,
1.232705,'4',,
1.232965,'8',,
1.234387,L,,
1.234647,C,,
1.234907,S,,
1.235167,A,,
1.235427,'250',,
1.235687,Q,,
1.235947,'160',,
1.236207,'0',,
1.236467,\n,,
1.236727,h,,
1.236987,'29',,
1.237247,'232',,
1.237507,'30',,
1.237767,'185',,
1.238027,'155',,
1.238287,'232',,
1.238547,'23',,
1.238807,'248',,
1.239067,'0',,
1.239327,'0',,
1.239587,'0',,
1.239847,'0',,
1.240107,'169',,
1.240367,'154',,
1.240627,a,,
1.240887,'143',,
1.241147,'160',,
1.241407,'128',,
1.241667,'176',,
1.241927,'139',,
1.242187,'19',,
1.242447,'140',,
1.242707,'4',,
1.242968,'8',,
1.244542,L,,
1.244802,C,,
1.245062,S,,
1.245322,A,,
1.245582,'250',,
1.245842,Q,,
1.246102,'160',,
1.246362,'0',,
1.246623,\n,,
1.246882,h,,
1.247143,'29',,
1.247403,'232',,
1.247663,'30',,
1.247923,'185',,
1.248183,'155',,
1.248443,'232',,
1.248703,'23',,
1.248963,'248',,
1.249223,'0',,
1.249483,'0',,
1.249743,'0',,
1.250003,'0',,
1.250263,'193',,
1.250523,'134',,
1.250783,a,,
1.251043,'143',,
1.251303,'160',,
1.251563,'128',,
1.251823,'176',,
1.252083,'139',,
1.252343,'19',,
1.252603,'140',,
1.252863,'4',,
1.253123,'8',,
1.254557,L,,
1.254817,C,,
1.255077,S,,
1.255337,A,,
1.255597,'250',,
1.255857,Q,,
1.256117,'160',,
1.256377,'0',,
1.256637,\n,,
1.256897,h,,
1.257157,'29',,
1.257417,'232',,
1.257677,'30',,
1.257937,'185',,
1.258197,'155',,
1.258457,'232',,
1.258717,'23',,
1.258977,'248',,
1.259237,'0',,
1.259497,'0',,
1.259757,'0',,
1.260017,'0',,
1.260277,'225',,
1.260537,'132',,
1.260797,a,,
1.261057,'143',,
1.261317,'160',,
1.261577,'128',,
1.261837,'176',,
1.262097,'139',,
1.262357,'19',,
1.262617,'140',,
1.262877,'4',,
1.263137,'8',,
1.264256,L,,
1.264516,C,,
1.264776,S,,
1.265036,A,,
1.265296,'250',,
1.265556,Q,,
1.265816,'160',,
1.266076,'0',,
1.266336,\n,,
1.266596,h,,
1.266856,'29',,
1.267116,'232',,
1.267376,'30',,
1.267636,'185',,
1.267896,'155',,
1.268156,'232',,
1.268416,'23',,
1.268676,'248',,
1.268936,'0',,
1.269196,'0',,
1.269456,'0',,
1.269716,'0',,
1.269976,'224',,
1.270236,'12',,
1.270496,a,,
1.270756,'143',,
1.271016,'160',,
1.271276,'128',,
1.271536,'176',,
1.271796,'139',,
1.272056,'19',,
1.272316,'140',,
1.272576,'4',,
1.272836,'8',,
1.274421,L,,
1.274681,C,,
1.274941,S,,
1.275201,A,,
1.275461,'250',,
1.275721,Q,,
1.275981,'160',,
1.276241,'0',,
1.276501,\n,,
1.276761,h,,
1.277021,'29',,
1.277281,'232',,
1.277541,'30',,
1.277801,'185',,
1.278061,'155',,
1.278321,'232',,
1.278581,'23',,
1.278841,'248',,
1.279101,'0',,
1.279361,'0',,
1.279621,'0',,
1.279881,'0',,
1.280141,a,,
1.280401,'142',,
1.280661,a,,
1.280922,'143',,
1.281182,'160',,
1.281442,'128',,
1.281702,'176',,
1.281962,'139',,
1.282222,'19',,
1.282482,'140',,
1.282742,'4',,
1.283002,'8',,
1.284446,L,,
1.284706,C,,
1.284967,S,,
1.285227,A,,
1.285487,'250',,
1.285747,Q,,
1.286007,'160',,
1.286267,'0',,
1.286527,\n,,
1.286787,h,,
1.287047,'29',,
1.287307,'232',,
1.287567,'30',,
1.287827,'185',,
1.288087,'155',,
1.288347,'232',,
1.288607,'23',,
1.288867,'248',,
1.289127,'0',,
1.289387,'0',,
1.289647,'0',,
1.289907,'0',,
1.290167,'160',,
1.290427,'128',,
1.290687,a,,
1.290947,'143',,
1.291207,'160',,
1.291467,'128',,
1.291727,'176',,
1.291987,'139',,
1.292247,'19',,
1.292507,'140',,
1.292767,'4',,
1.293027,'8',,
1.29444,L,,
1.2947,C,,
1.29496,S,,
1.29522,A,,
1.29548,'250',,
1.29574,Q,,
1.296,'160',,
1.296259,'0',,
1.29652,\n,,
1.29678,h,,
1.29704,'29',,
1.2973,'232',,
1.29756,'30',,
1.29782,'185',,
1.29808,'155',,
1.29834,'232',,
1.2986,'23',,
1.29886,'248',,
1.29912,'0',,
1.29938,'0',,
1.29964,'0',,
1.2999,'0',,
1.30016,'225',,
1.30042,'140',,
1.30068,a,,
1.30094,'143',,
1.3012,'160',,
1.30146,'128',,
1.30172,'176',,
1.30198,'139',,
1.30224,'19',,
1.3025,'140',,
1.30276,'4',,
1.30302,'8',,
1.304438,L,,
1.304698,C,,
1.304958,S,,
1.305218,A,,
1.305478,'250',,
1.305738,Q,,
1.305998,'160',,
1.306258,'0',,
1.306518,\n,,
1.306778,h,,
1.307038,'29',,
1.307298,'232',,
1.307558,'30',,
1.307818,'185',,
1.308078,'155',,
1.308338,'232',,
1.308598,'23',,
1.308858,'248',,
1.309118,'0',,
1.309378,'0',,
1.309638,'0',,
1.309898,'0',,
1.310158,'169',,
1.310418,'154',,
1.310678,'160',,
1.310938,'129',,
1.311198,'160',,
1.311458,'128',,
1.311718,'176',,
1.311978,'139',,
1.312238,'19',,
1.312498,'140',,
1.312758,'4',,
1.313018,'8',,
1.31444,L,,
1.3147,C,,
1.31496,S,,
1.315221,A,,
1.315481,'250',,
1.315741,Q,,
1.316001,'160',,
1.316261,'0',,
1.316521,\n,,
1.316781,h,,
1.317041,'29',,
1.317301,'232',,
1.317561,'30',,
1.317821,'185',,
1.318081,'155',,
1.318341,'232',,
1.318601,'23',,
1.318861,'248',,
1.319121,'0',,
1.319381,'0',,
1.319641,'0',,
1.319901,'0',,
1.320161,'193',,
1.320421,'134',,
1.320681,'160',,
1.320941,'129',,
1.321201,'160',,
1.321461,'128',,
1.321721,'176',,
1.321981,'139',,
1.322241,'19',,
1.322501,'140',,
1.322761,'4',,
1.323021,'8',,
1.324284,L,,
1.324544,C,,
1.324804,S,,
1.325064,A,,
1.325324,'250',,
1.325584,Q,,
1.325844,'160',,
1.326104,'0',,
1.326364,\n,,
1.326624,h,,
1.326884,'29',,
1.327144,'232',,
1.327404,'30',,
1.327664,'185',,
1.327924,'155',,
1.328185,'232',,
1.328444,'23',,
1.328704,'248',,
1.328964,'0',,
1.329224,'0',,
1.329485,'0',,
1.329745,'0',,
1.330005,'224',,
1.330265,'12',,
1.330525,'160',,
1.330785,'129',,
1.331045,'160',,
1.331305,'128',,
1.331565,'176',,
1.331825,'139',,
1.332085,'19',,
1.332345,'140',,
1.332605,'4',,
1.332865,'8',,
1.334425,L,,
1.334685,C,,
1.334945,S,,
1.335205,A,,
1.335465,'250',,
1.335725,Q,,
1.335985,'160',,
1.336245,'0',,
1.336505,\n,,
1.336765,h,,
1.337025,'29',,
1.337285,'232',,
1.337545,'30',,
1.337805,'185',,
1.338065,'155',,
1.338325,'232',,
1.338585,'23',,
1.338845,'248',,
1.339105,'0',,
1.339366,'0',,
1.339626,'0',,
1.339886,'0',,
1.340146,a,,
1.340406,'140',,
1.340666,'160',,
1.340926,'129',,
1.341186,'160',,
1.341446,'128',,
1.341706,'176',,
1.341966,'139',,
1.342226,'19',,
1.342486,'140',,
1.342746,'4',,
1.343006,'8',,
1.344285,L,,
1.344545,C,,
1.344805,S,,
1.345065,A,,
1.345325,'250',,
1.345585,Q,,
1.345845,'160',,
1.346105,'0',,
1.346365,\n,,
1.346625,h,,
1.346885,'29',,
1.347145,'232',,
1.347405,'30',,
1.347665,'185',,
1.347925,'155',,
1.348185,'232',,
1.348445,'23',,
1.348705,'248',,
1.348965,'0',,
1.349225,'0',,
1.349485,'0',,
1.349745,'0',,
1.350005,a,,
1.350265,'142',,
1.350525,'160',,
1.350786,'129',,
1.351046,'160',,
1.351306,'128',,
1.351566,'176',,
1.351826,'139',,
1.352086,'19',,
1.352346,'140',,
1.352606,'4',,
1.352866,'8',,
1.354275,L,,
1.354535,C,,
1.354795,S,,
1.355055,A,,
1.355315,'250',,
1.355575,Q,,
1.355835,'160',,
1.356095,'0',,
1.356355,\n,,
1.356615,h,,
1.356875,'29',,
1.357135,'232',,
1.357395,'30',,
1.357655,'185',,
1.357915,'155',,
1.358175,'232',,
1.358435,'23',,
1.358695,'248',,
1.358955,'0',,
1.359215,'0',,
1.359475,'0',,
1.359735,'0',,
1.359995,'160',,
1.360255,'128',,
1.360515,'160',,
1.360775,'129',,
1.361035,'160',,
1.361295,'128',,
1.361555,'176',,
1.361815,'139',,
1.362076,'19',,
1.362336,'140',,
1.362596,'4',,
1.362856,'8',,
1.364274,L,,
1.364534,C,,
1.364794,S,,
1.365054,A,,
1.365314,'250',,
1.365574,Q,,
1.365835,'160',,
1.366095,'0',,
1.366355,\n,,
1.366615,h,,
1.366875,'29',,
1.367135,'232',,
1.367395,'30',,
1.367655,'185',,
1.367915,'155',,
1.368175,'232',,
1.368435,'23',,
1.368695,'248',,
1.368955,'0',,
1.369215,'0',,
1.369475,'0',,
1.369735,'0',,
1.369995,'225',,
1.370255,'142',,
1.370515,'160',,
1.370775,'129',,
1.371035,'160',,
1.371295,'128',,
1.371555,'176',,
1.371815,'139',,
1.372075,'19',,
1.372335,'140',,
1.372595,'4',,
1.372855,'8',,
1.374276,L,,
1.374536,C,,
1.374796,S,,
1.375056,A,,
1.375316,'250',,
1.375576,Q,,
1.375836,'160',,
1.376096,'0',,
1.376356,\n,,
1.376616,h,,
1.376876,'29',,
1.377136,'232',,
1.377395,'30',,
1.377656,'185',,
1.377916,'155',,
1.378176,'232',,
1.378436,'23',,
1.378696,'248',,
1.378956,'0',,
1.379216,'0',,
1.379476,'0',,
1.379736,'0',,
1.379996,'225',,
1.380256,'140',,
1.380516,'160',,
1.380776,'129',,
1.381036,'160',,
1.381296,'128',,
1.381556,'176',,
1.381816,'139',,
1.382076,'19',,
1.382336,'140',,
1.382596,'4',,
1.382856,'8',,
1.394116,L,,
1.394376,C,,
1.394636,S,,
1.394896,A,,
1.395156,'250',,
1.395416,Q,,
1.395676,'160',,
1.395936,'0',,
1.396196,\n,,
1.396456,h,,
1.396716,'29',,
1.396976,'232',,
1.397236,'30',,
1.397496,'185',,
1.397756,'155',,
1.398016,'232',,
1.398276,'23',,
1.398536,'248',,
1.398796,'0',,
1.399056,'0',,
1.399316,'0',,
1.399576,'0',,
1.399836,'169',,
1.400096,'154',,
1.400356,'225',,
1.400616,'143',,
1.400876,'160',,
1.401136,'128',,
1.401396,'176',,
1.401656,'139',,
1.401916,'19',,
1.402176,'140',,
1.402436,'4',,
1.402696,'8',,
1.404263,L,,
1.404523,C,,
1.404783,S,,
1.405043,A,,
1.405303,'250',,
1.405563,Q,,
1.405823,'160',,
1.406083,'0',,
1.406343,\n,,
1.406603,h,,
1.406863,'29',,
1.407123,'232',,
1.407383,'30',,
1.407643,'185',,
1.407903,'155',,
1.408163,'232',,
1.408423,'23',,
1.408683,'248',,
1.408944,'0',,
1.409204,'0',,
1.409464,'0',,
1.409724,'0',,
1.409984,'160',,
1.410244,'0',,
1.410504,'225',,
1.410764,'143',,
1.411024,'160',,
1.411284,'128',,
1.411544,'176',,
1.411804,'139',,
1.412064,'19',,
1.412324,'140',,
1.412584,'4',,
1.412844,'8',,
1.424119,L,,
1.424379,C,,
1.424639,S,,
1.424899,A,,
1.425159,'250',,
1.425419,Q,,
1.425679,'160',,
1.425939,'0',,
1.426199,\n,,
1.426459,h,,
1.42672,'29',,
1.42698,'232',,
1.42724,'30',,
1.4275,'185',,
1.42776,'155',,
1.42802,'232',,
1.42828,'23',,
1.42854,'248',,
1.4288,'0',,
1.42906,'0',,
1.42932,'0',,
1.42958,'0',,
1.42984,'193',,
1.4301,'134',,
1.43036,'225',,
1.43062,'143',,
1.43088,'160',,
1.43114,'128',,
1.4314,'176',,
1.43166,'139',,
1.43192,'19',,
1.43218,'140',,
1.43244,'4',,
1.4327,'8',,
1.434267,L,,
1.434527,C,,
1.434787,S,,
1.435047,A,,
1.435307,'250',,
1.435567,Q,,
1.435827,'160',,
1.436087,'0',,
1.436347,\n,,
1.436607,h,,
1.436867,'29',,
1.437127,'232',,
1.437387,'30',,
1.437647,'185',,
1.437907,'155',,
1.438167,'232',,
1.438427,'23',,
1.438687,'248',,
1.438947,'0',,
1.439207,'0',,
1.439467,'0',,
1.439727,'0',,
1.439987,'225',,
1.440247,'132',,
1.440507,'225',,
1.440767,'143',,
1.441027,'160',,
1.441287,'128',,
1.441547,'176',,
1.441807,'139',,
1.442068,'19',,
1.442328,'140',,
1.442588,'4',,
1.442848,'8',,
1.444283,L,,
1.444543,C,,
1.444803,S,,
1.445063,A,,
1.445323,'250',,
1.445583,Q,,
1.445843,'160',,
1.446103,'0',,
1.446363,\n,,
1.446623,h,,
1.446883,'29',,
1.447143,'232',,
1.447403,'30',,
1.447663,'185',,
1.447923,'155',,
1.448183,'232',,
1.448443,'23',,
1.448703,'248',,
1.448963,'0',,
1.449223,'0',,
1.449483,'0',,
1.449743,'0',,
1.450003,'224',,
1.450263,'12',,
1.450523,'225',,
1.450783,'143',,
1.451043,'160',,
1.451303,'128',,
1.451563,'176',,
1.451823,'139',,
1.452083,'19',,
1.452343,'140',,
1.452603,'4',,
1.452863,'8',,
1.45444,L,,
1.4547,C,,
1.45496,S,,
1.45522,A,,
1.45548,'250',,
1.45574,Q,,
1.456,'160',,
1.45626,'0',,
1.45652,\n,,
1.45678,h,,
1.45704,'29',,
1.4573,'232',,
1.45756,'30',,
1.45782,'185',,
1.45808,'155',,
1.45834,'232',,
1.4586,'23',,
1.45886,'248',,
1.45912,'0',,
1.45938,'0',,
1.45964,'0',,
1.4599,'0',,
1.46016,a,,
1.46042,'142',,
1.46068,'225',,
1.460941,'143',,
1.4612,'160',,
1.461461,'128',,
1.461721,'176',,
1.461981,'139',,
1.462241,'19',,
1.462501,'140',,
1.462761,'4',,
1.463021,'8',,
1.464452,L,,
1.464713,C,,
1.464973,S,,
1.465233,A,,
1.465493,'250',,
1.465753,Q,,
1.466013,'160',,
1.466273,'0',,
1.466533,\n,,
1.466793,h,,
1.467053,'29',,
1.467313,'232',,
1.467573,'30',,
1.467833,'185',,
1.468093,'155',,
1.468353,'232',,
1.468613,'23',,
1.468873,'248',,
1.469133,'0',,
1.469393,'0',,
1.469653,'0',,
1.469913,'0',,
1.470173,'160',,
1.470433,'128',,
1.470693,'225',,
1.470953,'143',,
1.471213,'160',,
1.471473,'128',,
1.471733,'176',,
1.471993,'139',,
1.472253,'19',,
1.472513,'140',,
1.472773,'4',,
1.473033,'8',,
1.474299,L,,
1.474559,C,,
1.474819,S,,
1.475079,A,,
1.475339,'250',,
1.475599,Q,,
1.475859,'160',,
1.476119,'0',,
1.47638,\n,,
1.476639,h,,
1.4769,'29',,
1.47716,'232',,
1.47742,'30',,
1.47768,'185',,
1.47794,'155',,
1.4782,'232',,
1.47846,'23',,
1.47872,'248',,
1.47898,'0',,
1.47924,'0',,
1.4795,'0',,
1.47976,'0',,
1.48002,'225',,
1.48028,'142',,
1.48054,'225',,
1.4808,'143',,
1.48106,'160',,
1.48132,'128',,
1.48158,'176',,
1.48184,'139',,
1.4821,'19',,
1.48236,'140',,
1.48262,'4',,
1.48288,'8',,
1.484296,L,,
1.484556,C,,
1.484816,S,,
1.485076,A,,
1.485336,'250',,
1.485596,Q,,
1.485856,'160',,
1.486116,'0',,
1.486376,\n,,
1.486636,h,,
1.486896,'29',,
1.487156,'232',,
1.487416,'30',,
1.487676,'185',,
1.487936,'155',,
1.488196,'232',,
1.488456,'23',,
1.488716,'248',,
1.488976,'0',,
1.489236,'0',,
1.489496,'0',,
1.489756,'0',,
1.490016,'225',,
1.490276,'140',,
1.490536,'225',,
1.490796,'143',,
1.491056,'160',,
1.491316,'128',,
1.491576,'176',,
1.491836,'139',,
1.492096,'19',,
1.492356,'140',,
1.492616,'4',,
1.492877,'8',,
1.494443,L,,
1.494703,C,,
1.494963,S,,
1.495223,A,,
1.495483,'250',,
1.495743,Q,,
1.496003,'160',,
1.496263,'0',,
1.496523,\n,,
1.496783,h,,
1.497043,'29',,
1.497303,'232',,
1.497563,'30',,
1.497824,'185',,
1.498084,'155',,
1.498344,'232',,
1.498604,'23',,
1.498864,'248',,
1.499124,'0',,
1.499384,'0',,
1.499644,'0',,
1.499904,'0',,
1.500164,'160',,
1.500424,'0',,
1.500684,'225',,
1.500944,'141',,
1.501204,'160',,
1.501464,'128',,
1.501724,'176',,
1.501984,'139',,
1.502244,'19',,
1.502504,'140',,
1.502764,'4',,
1.503024,'8',,
1.504457,L,,
1.504717,C,,
1.504977,S,,
1.505237,A,,
1.505497,'250',,
1.505758,Q,,
1.506018,'160',,
1.506278,'0',,
1.506538,\n,,
1.506798,h,,
1.507058,'29',,
1.507318,'232',,
1.507578,'30',,
1.507838,'185',,
1.508098,'155',,
1.508358,'232',,
1.508618,'23',,
1.508878,'248',,
1.509138,'0',,
1.509398,'0',,
1.509658,'0',,
1.509918,'0',,
1.510178,'193',,
1.510438,'134',,
1.510698,'225',,
1.510958,'141',,
1.511218,'160',,
1.511478,'128',,
1.511738,'176',,
1.511998,'139',,
1.512258,'19',,
1.512518,'140',,
1.512778,'4',,
1.513038,'8',,
1.514304,L,,
1.514564,C,,
1.514824,S,,
1.515084,A,,
1.515344,'250',,
1.515604,Q,,
1.515864,'160',,
1.516124,'0',,
1.516384,\n,,
1.516644,h,,
1.516904,'29',,
1.517165,'232',,
1.517425,'30',,
1.517685,'185',,
1.517945,'155',,
1.518205,'232',,
1.518465,'23',,
1.518725,'248',,
1.518985,'0',,
1.519245,'0',,
1.519505,'0',,
1.519765,'0',,
1.520025,'225',,
1.520285,'132',,
1.520545,'225',,
1.520805,'141',,
1.521065,'160',,
1.521325,'128',,
1.521585,'176',,
1.521845,'139',,
1.522105,'19',,
1.522365,'140',,
1.522625,'4',,
1.522885,'8',,
1.524289,L,,
1.524549,C,,
1.524809,S,,
1.525069,A,,
1.525329,'250',,
1.525589,Q,,
1.525849,'160',,
1.526109,'0',,
1.526369,\n,,
1.526629,h,,
1.526889,'29',,
1.52715,'232',,
1.52741,'30',,
1.52767,'185',,
1.52793,'155',,
1.52819,'232',,
1.52845,'23',,
1.52871,'248',,
1.52897,'0',,
1.52923,'0',,
1.52949,'0',,
1.52975,'0',,
1.53001,'224',,
1.53027,'12',,
1.53053,'225',,
1.53079,'141',,
1.53105,'160',,
1.53131,'128',,
1.53157,'176',,
1.53183,'139',,
1.53209,'19',,
1.53235,'140',,
