Time [s],Value,Parity Error,Framing Error
1.155973,S,,
1.156232,W,,
1.156491,D,,
1.156749,R,,
1.157008,8,,
1.157267,1,,
1.157526,0,,
1.157785,1,,
1.158044,0,,
1.158303,0,,
1.158562,\r,,
1.158821,\n,,
1.165956,S,,
1.166216,W,,
1.166474,D,,
1.166733,R,,
1.166992,8,,
1.167251,0,,
1.16751,0,,
1.167769,1,,
1.168028,0,,
1.168287,0,,
1.168546,\r,,
1.168805,\n,,
1.175889,S,,
1.176148,W,,
1.176407,D,,
1.176666,R,,
1.176924,8,,
1.177183,1,,
1.177442,0,,
1.177701,1,,
1.17796,0,,
1.178219,0,,
1.178478,\r,,
1.178737,\n,,
1.235661,S,,
1.235921,W,,
1.236179,D,,
1.236438,R,,
1.236697,8,,
1.236956,2,,
1.237215,0,,
1.237474,1,,
1.237732,0,,
1.237991,0,,
1.23825,\r,,
1.238509,\n,,
1.245645,S,,
1.245904,W,,
1.246163,D,,
1.246422,R,,
1.246681,8,,
1.24694,1,,
1.247198,0,,
1.247457,1,,
1.247717,0,,
1.247975,0,,
1.248234,\r,,
1.248493,\n,,
1.265535,S,,
1.265794,W,,
1.266053,D,,
1.266312,R,,
1.266571,8,,
1.26683,2,,
1.267089,0,,
1.267348,1,,
1.267607,0,,
1.267865,0,,
1.268124,\r,,
1.268383,\n,,
1.275518,S,,
1.275776,W,,
1.276035,D,,
1.276294,R,,
1.276554,8,,
1.276812,1,,
1.277071,0,,
1.27733,1,,
1.277589,0,,
1.277848,0,,
1.278107,\r,,
1.278366,\n,,
1.28545,S,,
1.285709,W,,
1.285968,D,,
1.286226,R,,
1.286485,8,,
1.286744,2,,
1.287003,0,,
1.287262,1,,
1.287521,0,,
1.28778,0,,
1.288039,\r,,
1.288298,\n,,
1.295408,S,,
1.295667,W,,
1.295926,D,,
1.296184,R,,
1.296443,8,,
1.296702,1,,
1.296961,0,,
1.29722,1,,
1.297479,0,,
1.297738,0,,
1.297997,\r,,
1.298256,\n,,
1.305366,S,,
1.305625,W,,
1.305884,D,,
1.306142,R,,
1.306401,8,,
1.30666,2,,
1.306919,0,,
1.307178,1,,
1.307437,0,,
1.307696,0,,
1.307955,\r,,
1.308214,\n,,
1.325282,S,,
1.325541,W,,
1.3258,D,,
1.326059,R,,
1.326317,8,,
1.326576,1,,
1.326835,0,,
1.327094,1,,
1.327353,0,,
1.327612,0,,
1.327871,\r,,
1.32813,\n,,
1.375067,S,,
1.375326,W,,
1.375585,D,,
1.375844,R,,
1.376103,8,,
1.376361,0,,
1.37662,0,,
1.376879,1,,
1.377138,0,,
1.377397,0,,
1.377656,\r,,
1.377914,\n,,
1.385002,S,,
1.385261,W,,
1.38552,D,,
1.385779,R,,
1.386038,8,,
1.386297,1,,
1.386556,0,,
1.386815,1,,
1.387074,0,,
1.387332,0,,
1.387591,\r,,
1.38785,\n,,
1.404941,S,,
1.4052,W,,
1.405459,D,,
1.405717,R,,
1.405977,8,,
1.406236,0,,
1.406494,0,,
1.406753,1,,
1.407012,0,,
1.407271,0,,
1.40753,\r,,
1.407789,\n,,
1.414875,S,,
1.415134,W,,
1.415393,D,,
1.415652,R,,
1.41591,8,,
1.416169,1,,
1.416428,0,,
1.416687,1,,
1.416946,0,,
1.417205,0,,
1.417464,\r,,
1.417723,\n,,
1.44478,S,,
1.445039,W,,
1.445298,D,,
1.445556,R,,
1.445816,8,,
1.446074,2,,
1.446333,0,,
1.446592,1,,
1.446851,0,,
1.44711,0,,
1.447369,\r,,
1.447628,\n,,
1.454707,S,,
1.454966,W,,
1.455225,D,,
1.455484,R,,
1.455742,8,,
1.456001,1,,
1.45626,0,,
1.456519,1,,
1.456778,0,,
1.457037,0,,
1.457296,\r,,
1.457555,\n,,
1.484602,S,,
1.484861,W,,
1.48512,D,,
1.485379,R,,
1.485638,8,,
1.485896,2,,
1.486155,0,,
1.486414,1,,
1.486673,0,,
1.486932,0,,
1.487191,\r,,
1.48745,\n,,
1.494537,S,,
1.494796,W,,
1.495055,D,,
1.495314,R,,
1.495573,8,,
1.495832,1,,
1.496091,0,,
1.49635,1,,
1.496609,0,,
1.496868,0,,
1.497126,\r,,
1.497385,\n,,
1.52441,S,,
1.524669,W,,
1.524928,D,,
1.525187,R,,
1.525445,8,,
1.525704,2,,
1.525963,0,,
1.526222,1,,
1.526481,0,,
1.52674,0,,
1.526999,\r,,
1.527258,\n,,
1.534369,S,,
1.534629,W,,
1.534888,D,,
1.535147,R,,
1.535406,8,,
1.535664,1,,
1.535923,0,,
1.536182,1,,
1.536441,0,,
1.5367,0,,
1.536958,\r,,
1.537217,\n,,
1.544326,S,,
1.544585,W,,
1.544844,D,,
1.545103,R,,
1.545361,8,,
1.54562,2,,
1.545879,0,,
1.546138,1,,
1.546397,0,,
1.546656,0,,
1.546915,\r,,
1.547174,\n,,
1.554295,S,,
1.554554,W,,
1.554813,D,,
1.555072,R,,
1.555331,8,,
1.55559,1,,
1.555849,0,,
1.556108,1,,
1.556366,0,,
1.556625,0,,
1.556884,\r,,
1.557143,\n,,
1.564242,S,,
1.564501,W,,
1.56476,D,,
1.565019,R,,
1.565277,8,,
1.565536,2,,
1.565795,0,,
1.566054,1,,
1.566313,0,,
1.566572,0,,
1.566831,\r,,
1.56709,\n,,
1.584156,S,,
1.584415,W,,
1.584674,D,,
1.584933,R,,
1.585191,8,,
1.58545,1,,
1.58571,0,,
1.585969,1,,
1.586228,0,,
1.586487,0,,
1.586745,\r,,
1.587004,\n,,
1.594114,S,,
1.594373,W,,
1.594632,D,,
1.594891,R,,
1.59515,8,,
1.595409,2,,
1.595668,0,,
1.595927,1,,
1.596186,0,,
1.596444,0,,
1.596703,\r,,
1.596962,\n,,
1.604074,S,,
1.604333,W,,
1.604592,D,,
1.604851,R,,
1.60511,8,,
1.605369,1,,
1.605627,0,,
1.605886,1,,
1.606145,0,,
1.606405,0,,
1.606663,\r,,
1.606922,\n,,
1.623988,S,,
1.624247,W,,
1.624506,D,,
1.624765,R,,
1.625024,8,,
1.625283,2,,
1.625542,0,,
1.625801,1,,
1.62606,0,,
1.626319,0,,
1.626577,\r,,
1.626836,\n,,
1.633947,S,,
1.634205,W,,
1.634464,D,,
1.634723,R,,
1.634982,8,,
1.635241,1,,
1.6355,0,,
1.635759,1,,
1.636018,0,,
1.636277,0,,
1.636536,\r,,
1.636794,\n,,
1.643998,S,,
1.644257,W,,
1.644516,D,,
1.644775,R,,
1.645034,8,,
1.645293,2,,
1.645552,0,,
1.645811,1,,
1.64607,0,,
1.646328,0,,
1.646587,\r,,
1.646846,\n,,
1.654,S,,
1.654259,W,,
1.654518,D,,
1.654777,R,,
1.655036,8,,
1.655295,1,,
1.655553,0,,
1.655812,1,,
1.656071,0,,
1.65633,0,,
1.656589,\r,,
1.656847,\n,,
1.664,S,,
1.664259,W,,
1.664518,D,,
1.664777,R,,
1.665036,8,,
1.665295,2,,
1.665554,0,,
1.665812,1,,
1.666072,0,,
1.66633,0,,
1.666589,\r,,
1.666848,\n,,
1.7038,S,,
1.704059,W,,
1.704318,D,,
1.704577,R,,
1.704835,8,,
1.705094,1,,
1.705353,0,,
1.705612,1,,
1.705871,0,,
1.70613,0,,
1.706389,\r,,
1.706648,\n,,
1.713793,S,,
1.714052,W,,
1.714311,D,,
1.71457,R,,
1.714829,8,,
1.715088,2,,
1.715347,0,,
1.715606,1,,
1.715865,0,,
1.716123,0,,
1.716383,\r,,
1.716641,\n,,
1.733745,S,,
1.734004,W,,
1.734263,D,,
1.734522,R,,
1.734781,8,,
1.73504,1,,
1.735299,0,,
1.735557,1,,
1.735817,0,,
1.736075,0,,
1.736334,\r,,
1.736593,\n,,
1.743674,S,,
1.743933,W,,
1.744192,D,,
1.744451,R,,
1.74471,8,,
1.744968,2,,
1.745227,0,,
1.745486,1,,
1.745745,0,,
1.746004,0,,
1.746263,\r,,
1.746522,\n,,
1.763423,S,,
1.763682,W,,
1.763941,D,,
1.7642,R,,
1.764459,8,,
1.764718,1,,
1.764977,0,,
1.765236,1,,
1.765495,0,,
1.765753,0,,
1.766012,\r,,
1.766271,\n,,
1.773381,S,,
1.77364,W,,
1.773899,D,,
1.774158,R,,
1.774417,8,,
1.774676,2,,
1.774935,0,,
1.775194,1,,
1.775453,0,,
1.775712,0,,
1.77597,\r,,
1.77623,\n,,
1.803255,S,,
1.803514,W,,
1.803773,D,,
1.804032,R,,
1.804291,8,,
1.80455,1,,
1.804809,0,,
1.805068,1,,
1.805327,0,,
1.805586,0,,
1.805844,\r,,
1.806103,\n,,
1.813237,S,,
1.813497,W,,
1.813755,D,,
1.814014,R,,
1.814273,8,,
1.814532,2,,
1.814791,0,,
1.81505,1,,
1.815309,0,,
1.815568,0,,
1.815827,\r,,
1.816086,\n,,
1.833128,S,,
1.833387,W,,
1.833646,D,,
1.833905,R,,
1.834163,8,,
1.834422,1,,
1.834681,0,,
1.83494,1,,
1.835199,0,,
1.835458,0,,
1.835717,\r,,
1.835976,\n,,
1.843086,S,,
1.843345,W,,
1.843604,D,,
1.843863,R,,
1.844122,8,,
1.84438,2,,
1.844639,0,,
1.844898,1,,
1.845157,0,,
1.845416,0,,
1.845675,\r,,
1.845934,\n,,
1.863034,S,,
1.863293,W,,
1.863552,D,,
1.863811,R,,
1.86407,8,,
1.864329,1,,
1.864588,0,,
1.864847,1,,
1.865106,0,,
1.865364,0,,
1.865623,\r,,
1.865882,\n,,
1.872962,S,,
1.873221,W,,
1.873479,D,,
1.873738,R,,
1.873997,8,,
1.874256,2,,
1.874515,0,,
1.874774,1,,
1.875033,0,,
1.875292,0,,
1.875551,\r,,
1.87581,\n,,
1.882923,S,,
1.883182,W,,
1.883441,D,,
1.8837,R,,
1.883958,8,,
1.884217,1,,
1.884476,0,,
1.884735,1,,
1.884994,0,,
1.885253,0,,
1.885512,\r,,
1.885771,\n,,
1.892879,S,,
1.893138,W,,
1.893397,D,,
1.893656,R,,
1.893915,8,,
1.894174,2,,
1.894433,0,,
1.894692,1,,
1.89495,0,,
1.895209,0,,
1.895468,\r,,
1.895727,\n,,
1.902839,S,,
1.903098,W,,
1.903357,D,,
1.903616,R,,
1.903875,8,,
1.904133,1,,
1.904392,0,,
1.904651,1,,
1.90491,0,,
1.905169,0,,
1.905428,\r,,
1.905687,\n,,
1.922749,S,,
1.923007,W,,
1.923266,D,,
1.923525,R,,
1.923784,8,,
1.924043,2,,
1.924302,0,,
1.924561,1,,
1.92482,0,,
1.925079,0,,
1.925338,\r,,
1.925596,\n,,
1.932707,S,,
1.932966,W,,
1.933224,D,,
1.933483,R,,
1.933742,8,,
1.934001,1,,
1.93426,0,,
1.934519,1,,
1.934778,0,,
1.935037,0,,
1.935296,\r,,
1.935555,\n,,
1.942663,S,,
1.942922,W,,
1.943181,D,,
1.94344,R,,
1.943699,8,,
1.943958,2,,
1.944216,0,,
1.944475,1,,
1.944734,0,,
1.944993,0,,
1.945252,\r,,
1.945511,\n,,
1.952621,S,,
1.95288,W,,
1.953139,D,,
1.953398,R,,
1.953657,8,,
1.953916,1,,
1.954175,0,,
1.954433,1,,
1.954692,0,,
1.954951,0,,
1.95521,\r,,
1.955469,\n,,
1.962581,S,,
1.96284,W,,
1.963099,D,,
1.963358,R,,
1.963616,8,,
1.963875,2,,
1.964134,0,,
1.964393,1,,
1.964652,0,,
1.964911,0,,
1.96517,\r,,
1.965429,\n,,
1.972563,S,,
1.972822,W,,
1.973081,D,,
1.97334,R,,
1.973599,8,,
1.973858,1,,
1.974117,0,,
1.974375,1,,
1.974634,0,,
1.974893,0,,
1.975152,\r,,
1.975411,\n,,
1.982495,S,,
1.982754,W,,
1.983013,D,,
1.983272,R,,
1.983531,8,,
1.98379,2,,
1.984049,0,,
1.984308,1,,
1.984567,0,,
1.984825,0,,
1.985084,\r,,
1.985343,\n,,
2.002444,S,,
2.002703,W,,
2.002962,D,,
2.00322,R,,
2.003479,8,,
2.003738,1,,
2.003997,0,,
2.004256,1,,
2.004515,0,,
2.004774,0,,
2.005033,\r,,
2.005292,\n,,
2.012395,S,,
2.012654,W,,
2.012913,D,,
2.013172,R,,
2.013431,8,,
2.01369,2,,
2.013949,0,,
2.014208,1,,
2.014467,0,,
2.014725,0,,
2.014984,\r,,
2.015243,\n,,
2.042268,S,,
2.042527,W,,
2.042785,D,,
2.043045,R,,
2.043303,8,,
2.043562,1,,
2.043821,0,,
2.04408,1,,
2.044339,0,,
2.044598,0,,
2.044857,\r,,
2.045116,\n,,
2.0522,S,,
2.052459,W,,
2.052718,D,,
2.052977,R,,
2.053235,8,,
2.053494,2,,
2.053753,0,,
2.054012,1,,
2.054271,0,,
2.05453,0,,
2.054789,\r,,
2.055048,\n,,
2.062161,S,,
2.06242,W,,
2.062679,D,,
2.062938,R,,
2.063197,8,,
2.063456,1,,
2.063715,0,,
2.063973,1,,
2.064232,0,,
2.064491,0,,
2.06475,\r,,
2.065009,\n,,
2.072123,S,,
2.072381,W,,
2.072641,D,,
2.072899,R,,
2.073158,8,,
2.073417,2,,
2.073676,0,,
2.073935,1,,
2.074194,0,,
2.074453,0,,
2.074711,\r,,
2.07497,\n,,
2.09203,S,,
2.092289,W,,
2.092548,D,,
2.092807,R,,
2.093066,8,,
2.093325,1,,
2.093584,0,,
2.093843,1,,
2.094102,0,,
2.094361,0,,
2.094619,\r,,
2.094878,\n,,
2.101988,S,,
2.102247,W,,
2.102506,D,,
2.102765,R,,
2.103024,8,,
2.103283,2,,
2.103542,0,,
2.103801,1,,
2.10406,0,,
2.104319,0,,
2.104577,\r,,
2.104836,\n,,
2.111946,S,,
2.112205,W,,
2.112464,D,,
2.112723,R,,
2.112982,8,,
2.113241,1,,
2.1135,0,,
2.113759,1,,
2.114018,0,,
2.114277,0,,
2.114535,\r,,
2.114794,\n,,
2.131888,S,,
2.132147,W,,
2.132406,D,,
2.132665,R,,
2.132924,8,,
2.133183,2,,
2.133442,0,,
2.133701,1,,
2.13396,0,,
2.134218,0,,
2.134477,\r,,
2.134736,\n,,
2.141819,S,,
2.142078,W,,
2.142337,D,,
2.142596,R,,
2.142854,8,,
2.143113,1,,
2.143372,0,,
2.143631,1,,
2.14389,0,,
2.144149,0,,
2.144408,\r,,
2.144667,\n,,
2.151777,S,,
2.152036,W,,
2.152295,D,,
2.152554,R,,
2.152812,8,,
2.153071,2,,
2.15333,0,,
2.153589,1,,
2.153848,0,,
2.154107,0,,
2.154366,\r,,
2.154625,\n,,
2.161735,S,,
2.161994,W,,
2.162253,D,,
2.162512,R,,
2.162771,8,,
2.163029,1,,
2.163288,0,,
2.163547,1,,
2.163806,0,,
2.164065,0,,
2.164324,\r,,
2.164583,\n,,
2.171693,S,,
2.171952,W,,
2.172211,D,,
2.17247,R,,
2.172729,8,,
2.172987,2,,
2.173246,0,,
2.173505,1,,
2.173764,0,,
2.174023,0,,
2.174282,\r,,
2.174541,\n,,
2.181651,S,,
2.18191,W,,
2.182169,D,,
2.182428,R,,
2.182687,8,,
2.182946,1,,
2.183204,0,,
2.183463,1,,
2.183722,0,,
2.183981,0,,
2.18424,\r,,
2.184499,\n,,
2.191618,S,,
2.191878,W,,
2.192137,D,,
2.192395,R,,
2.192654,8,,
2.192913,2,,
2.193172,0,,
2.193431,1,,
2.19369,0,,
2.193949,0,,
2.194208,\r,,
2.194467,\n,,
2.201596,S,,
2.201855,W,,
2.202114,D,,
2.202373,R,,
2.202632,8,,
2.202891,1,,
2.20315,0,,
2.203408,1,,
2.203668,0,,
2.203926,0,,
2.204185,\r,,
2.204444,\n,,
2.211557,S,,
2.211816,W,,
2.212076,D,,
2.212334,R,,
2.212593,8,,
2.212852,2,,
2.213111,0,,
2.21337,1,,
2.213629,0,,
2.213888,0,,
2.214147,\r,,
2.214405,\n,,
2.221481,S,,
2.22174,W,,
2.221999,D,,
2.222258,R,,
2.222517,8,,
2.222776,1,,
2.223035,0,,
2.223294,1,,
2.223553,0,,
2.223812,0,,
2.224071,\r,,
2.224329,\n,,
2.241404,S,,
2.241663,W,,
2.241922,D,,
2.242181,R,,
2.24244,8,,
2.242699,2,,
2.242957,0,,
2.243216,1,,
2.243475,0,,
2.243734,0,,
2.243993,\r,,
2.244252,\n,,
2.251381,S,,
2.25164,W,,
2.251899,D,,
2.252158,R,,
2.252417,8,,
2.252676,1,,
2.252935,0,,
2.253194,1,,
2.253453,0,,
2.253712,0,,
2.253971,\r,,
2.254229,\n,,
2.26134,S,,
2.261598,W,,
2.261857,D,,
2.262116,R,,
2.262375,8,,
2.262635,2,,
2.262893,0,,
2.263152,1,,
2.263411,0,,
2.26367,0,,
2.263928,\r,,
2.264187,\n,,
2.271296,S,,
2.271555,W,,
2.271814,D,,
2.272073,R,,
2.272331,8,,
2.27259,1,,
2.272849,0,,
2.273108,1,,
2.273367,0,,
2.273626,0,,
2.273885,\r,,
2.274144,\n,,
2.281228,S,,
2.281487,W,,
2.281746,D,,
2.282005,R,,
2.282264,8,,
2.282523,2,,
2.282781,0,,
2.28304,1,,
2.283299,0,,
2.283558,0,,
2.283817,\r,,
2.284076,\n,,
2.331044,S,,
2.331302,W,,
2.331562,D,,
2.331821,R,,
2.33208,8,,
2.332338,1,,
2.332597,0,,
2.332856,1,,
2.333115,0,,
2.333374,0,,
2.333633,\r,,
2.333892,\n,,
2.340974,S,,
2.341234,W,,
2.341492,D,,
2.341751,R,,
2.34201,8,,
2.342269,2,,
2.342528,0,,
2.342787,1,,
2.343046,0,,
2.343305,0,,
2.343563,\r,,
2.343822,\n,,
2.350932,S,,
2.351191,W,,
2.35145,D,,
2.351709,R,,
2.351968,8,,
2.352227,1,,
2.352486,0,,
2.352745,1,,
2.353004,0,,
2.353263,0,,
2.353521,\r,,
2.35378,\n,,
2.360894,S,,
2.361153,W,,
2.361412,D,,
2.36167,R,,
2.361929,8,,
2.362188,2,,
2.362447,0,,
2.362706,1,,
2.362965,0,,
2.363224,0,,
2.363483,\r,,
2.363742,\n,,
2.370855,S,,
2.371114,W,,
2.371373,D,,
2.371632,R,,
2.371891,8,,
2.372149,1,,
2.372408,0,,
2.372667,1,,
2.372926,0,,
2.373185,0,,
2.373444,\r,,
2.373703,\n,,
2.430609,S,,
2.430868,W,,
2.431127,D,,
2.431386,R,,
2.431645,8,,
2.431904,2,,
2.432163,0,,
2.432422,1,,
2.432681,0,,
2.43294,0,,
2.433199,\r,,
2.433457,\n,,
2.440579,S,,
2.440838,W,,
2.441097,D,,
2.441356,R,,
2.441615,8,,
2.441874,1,,
2.442132,0,,
2.442391,1,,
2.44265,0,,
2.442909,0,,
2.443168,\r,,
2.443427,\n,,
2.470451,S,,
2.47071,W,,
2.470969,D,,
2.471228,R,,
2.471487,8,,
2.471746,2,,
2.472005,0,,
2.472264,1,,
2.472523,0,,
2.472781,0,,
2.47304,\r,,
2.473299,\n,,
2.480411,S,,
2.48067,W,,
2.480929,D,,
2.481187,R,,
2.481446,8,,
2.481705,1,,
2.481964,0,,
2.482223,1,,
2.482482,0,,
2.482741,0,,
2.483,\r,,
2.483259,\n,,
2.490367,S,,
2.490626,W,,
2.490885,D,,
2.491144,R,,
2.491403,8,,
2.491662,2,,
2.491921,0,,
2.49218,1,,
2.492438,0,,
2.492697,0,,
2.492957,\r,,
2.493216,\n,,
2.500299,S,,
2.500558,W,,
2.500817,D,,
2.501076,R,,
2.501335,8,,
2.501594,1,,
2.501853,0,,
2.502112,1,,
2.502371,0,,
2.50263,0,,
2.502888,\r,,
2.503147,\n,,
2.510258,S,,
2.510517,W,,
2.510775,D,,
2.511034,R,,
2.511293,8,,
2.511552,2,,
2.511811,0,,
2.51207,1,,
2.512329,0,,
2.512588,0,,
2.512846,\r,,
2.513105,\n,,
2.520214,S,,
2.520473,W,,
2.520732,D,,
2.520991,R,,
2.521249,8,,
2.521508,1,,
2.521767,0,,
2.522027,1,,
2.522285,0,,
2.522544,0,,
2.522803,\r,,
2.523062,\n,,
2.530348,S,,
2.530607,W,,
2.530866,D,,
2.531125,A,,
2.531384,0,,
2.531643,0,,
2.531902,0,,
2.532161,0,,
2.532419,0,,
2.532678,0,,
2.532937,0,,
2.533196,0,,
2.533455,5,,
2.533714,2,,
2.533973,4,,
2.534232,B,,
2.534491,1,,
2.53475,F,,
2.535008,0,,
2.535267,0,,
2.535526,8,,
2.535785,2,,
2.536044,0,,
2.536303,1,,
2.536562,0,,
2.536821,0,,
2.53708,\r,,
2.537339,\n,,
2.540154,S,,
2.540413,W,,
2.540672,D,,
2.540931,R,,
2.54119,8,,
2.541449,1,,
2.541708,0,,
2.541966,1,,
2.542225,0,,
2.542484,0,,
2.542743,\r,,
2.543002,\n,,
2.550263,S,,
2.550522,W,,
2.55078,D,,
2.551039,A,,
2.551298,0,,
2.551557,0,,
2.551816,0,,
2.552075,0,,
2.552334,0,,
2.552593,0,,
2.552852,0,,
2.553111,0,,
2.553369,5,,
2.553628,3,,
2.553887,4,,
2.554146,B,,
2.554405,1,,
2.554664,F,,
2.554923,0,,
2.555182,0,,
2.555441,8,,
2.5557,2,,
2.555958,0,,
2.556217,1,,
2.556476,0,,
2.556735,0,,
2.556994,\r,,
2.557253,\n,,
2.560046,S,,
2.560305,W,,
2.560564,D,,
2.560823,R,,
2.561082,8,,
2.56134,1,,
2.561599,0,,
2.561858,1,,
2.562117,0,,
2.562376,0,,
2.562635,\r,,
2.562894,\n,,
2.570002,S,,
2.570261,W,,
2.57052,D,,
2.570779,R,,
2.571038,8,,
2.571297,2,,
2.571556,0,,
2.571815,1,,
2.572074,0,,
2.572332,0,,
2.572591,\r,,
2.57285,\n,,
2.579962,S,,
2.580221,W,,
2.58048,D,,
2.580739,R,,
2.580998,8,,
2.581257,1,,
2.581515,0,,
2.581774,1,,
2.582033,0,,
2.582292,0,,
2.582551,\r,,
2.58281,\n,,
2.599889,S,,
2.600148,W,,
2.600407,D,,
2.600666,R,,
2.600925,8,,
2.601184,2,,
2.601443,0,,
2.601702,1,,
2.601961,0,,
2.602219,0,,
2.602478,\r,,
2.602737,\n,,
2.609838,S,,
2.610097,W,,
2.610355,D,,
2.610614,R,,
2.610873,8,,
2.611132,1,,
2.611391,0,,
2.61165,1,,
2.611909,0,,
2.612168,0,,
2.612427,\r,,
2.612686,\n,,
2.619825,S,,
2.620084,W,,
2.620343,D,,
2.620602,R,,
2.62086,8,,
2.621119,2,,
2.621378,0,,
2.621637,1,,
2.621896,0,,
2.622155,0,,
2.622414,\r,,
2.622673,\n,,
2.629776,S,,
2.630035,W,,
2.630294,D,,
2.630553,R,,
2.630812,8,,
2.631071,1,,
2.63133,0,,
2.631588,1,,
2.631848,0,,
2.632107,0,,
2.632365,\r,,
2.632624,\n,,
2.649668,S,,
2.649927,W,,
2.650186,D,,
2.650445,R,,
2.650704,8,,
2.650963,2,,
2.651222,0,,
2.65148,1,,
2.651739,0,,
2.651998,0,,
2.652257,\r,,
2.652516,\n,,
2.659655,S,,
2.659914,W,,
2.660173,D,,
2.660432,R,,
2.660691,8,,
2.66095,1,,
2.661209,0,,
2.661468,1,,
2.661727,0,,
2.661985,0,,
2.662244,\r,,
2.662503,\n,,
2.669581,S,,
2.66984,W,,
2.670099,D,,
2.670358,R,,
2.670617,8,,
2.670875,2,,
2.671134,0,,
2.671393,1,,
2.671652,0,,
2.671911,0,,
2.672171,\r,,
2.672428,\n,,
2.689504,S,,
2.689763,W,,
2.690022,D,,
2.690281,R,,
2.690539,8,,
2.690799,1,,
2.691057,0,,
2.691316,1,,
2.691575,0,,
2.691834,0,,
2.692093,\r,,
2.692351,\n,,
2.699455,S,,
2.699714,W,,
2.699973,D,,
2.700232,R,,
2.700491,8,,
2.70075,2,,
2.701008,0,,
2.701267,1,,
2.701526,0,,
2.701785,0,,
2.702044,\r,,
2.702303,\n,,
2.709422,S,,
2.709681,W,,
2.70994,D,,
2.7102,R,,
2.710458,8,,
2.710717,1,,
2.710976,0,,
2.711235,1,,
2.711494,0,,
2.711753,0,,
2.712012,\r,,
2.712271,\n,,
2.719371,S,,
2.71963,W,,
2.719889,D,,
2.720148,R,,
2.720407,8,,
2.720666,2,,
2.720925,0,,
2.721183,1,,
2.721442,0,,
2.721701,0,,
2.72196,\r,,
2.722219,\n,,
2.749247,S,,
2.749506,W,,
2.749765,D,,
2.750024,R,,
2.750282,8,,
2.750541,1,,
2.7508,0,,
2.751059,1,,
2.751318,0,,
2.751577,0,,
2.751836,\r,,
2.752094,\n,,
2.759208,S,,
2.759467,W,,
2.759726,D,,
2.759985,R,,
2.760244,8,,
2.760503,2,,
2.760761,0,,
2.76102,1,,
2.761279,0,,
2.761538,0,,
2.761797,\r,,
2.762056,\n,,
2.779116,S,,
2.779375,W,,
2.779634,D,,
2.779893,R,,
2.780152,8,,
2.78041,1,,
2.780669,0,,
2.780928,1,,
2.781187,0,,
2.781446,0,,
2.781705,\r,,
2.781964,\n,,
2.789076,S,,
2.789334,W,,
2.789593,D,,
2.789852,R,,
2.790111,8,,
2.79037,2,,
2.790629,0,,
2.790888,1,,
2.791147,0,,
2.791406,0,,
2.791665,\r,,
2.791924,\n,,
2.80901,S,,
2.809268,W,,
2.809527,D,,
2.809786,R,,
2.810045,8,,
2.810304,1,,
2.810563,0,,
2.810822,1,,
2.811081,0,,
2.81134,0,,
2.811598,\r,,
2.811857,\n,,
2.818974,S,,
2.819233,W,,
2.819492,D,,
2.819751,R,,
2.82001,8,,
2.820268,2,,
2.820527,0,,
2.820786,1,,
2.821045,0,,
2.821304,0,,
2.821563,\r,,
2.821822,\n,,
2.828906,S,,
2.829165,W,,
2.829424,D,,
2.829683,R,,
2.829942,8,,
2.830201,1,,
2.830459,0,,
2.830718,1,,
2.830977,0,,
2.831236,0,,
2.831495,\r,,
2.831754,\n,,
2.838867,S,,
2.839126,W,,
2.839385,D,,
2.839644,R,,
2.839903,8,,
2.840162,2,,
2.840421,0,,
2.84068,1,,
2.840939,0,,
2.841197,0,,
2.841456,\r,,
2.841715,\n,,
2.848848,S,,
2.849107,W,,
2.849366,D,,
2.849625,R,,
2.849884,8,,
2.850143,1,,
2.850401,0,,
2.85066,1,,
2.850919,0,,
2.851178,0,,
2.851437,\r,,
2.851696,\n,,
2.908577,S,,
2.908836,W,,
2.909095,D,,
2.909354,R,,
2.909612,8,,
2.909871,2,,
2.91013,0,,
2.910389,1,,
2.910648,0,,
2.910907,0,,
2.911166,\r,,
2.911425,\n,,
2.918525,S,,
2.918785,W,,
2.919044,D,,
2.919302,R,,
2.919561,8,,
2.91982,1,,
2.920079,0,,
2.920338,1,,
2.920596,0,,
2.920855,0,,
2.921114,\r,,
2.921373,\n,,
2.928514,S,,
2.928773,W,,
2.929032,D,,
2.929291,R,,
2.92955,8,,
2.929808,2,,
2.930067,0,,
2.930326,1,,
2.930585,0,,
2.930844,0,,
2.931103,\r,,
2.931362,\n,,
2.938448,S,,
2.938707,W,,
2.938966,D,,
2.939224,R,,
2.939483,8,,
2.939742,1,,
2.940001,0,,
2.94026,1,,
2.940519,0,,
2.940778,0,,
2.941037,\r,,
2.941296,\n,,
2.948399,S,,
2.948658,W,,
2.948917,D,,
2.949176,R,,
2.949435,8,,
2.949694,2,,
2.949953,0,,
2.950212,1,,
2.950471,0,,
2.95073,0,,
2.950989,\r,,
2.951248,\n,,
3.067918,S,,
3.068177,W,,
3.068436,D,,
3.068695,R,,
3.068954,8,,
3.069213,1,,
3.069472,0,,
3.069731,1,,
3.069989,0,,
3.070248,0,,
3.070507,\r,,
3.070766,\n,,
3.07785,S,,
3.078109,W,,
3.078368,D,,
3.078627,R,,
3.078886,8,,
3.079145,2,,
3.079404,0,,
3.079663,1,,
3.079922,0,,
3.08018,0,,
3.080439,\r,,
3.080698,\n,,
3.087834,S,,
3.088093,W,,
3.088352,D,,
3.088611,R,,
3.08887,8,,
3.089129,1,,
3.089388,0,,
3.089647,1,,
