Time [s],Value,Parity Error,Framing Error
0.089395,S,,
0.089654,W,,
0.089913,D,,
0.090172,R,,
0.090431,7,,
0.090689,F,,
0.090948,0,,
0.091207,1,,
0.091466,0,,
0.091725,0,,
0.091984,\r,,
0.092243,\n,,
0.099379,S,,
0.099638,W,,
0.099897,D,,
0.100155,R,,
0.100414,8,,
0.100673,0,,
0.100932,0,,
0.101191,1,,
0.10145,0,,
0.101709,0,,
0.101968,\r,,
0.102227,\n,,
0.139183,S,,
0.139442,W,,
0.139701,D,,
0.13996,R,,
0.140219,7,,
0.140478,F,,
0.140737,0,,
0.140996,1,,
0.141254,0,,
0.141513,0,,
0.141772,\r,,
0.142031,\n,,
0.149193,S,,
0.149452,W,,
0.149711,D,,
0.14997,R,,
0.150229,8,,
0.150488,0,,
0.150746,0,,
0.151005,1,,
0.151264,0,,
0.151523,0,,
0.151782,\r,,
0.152041,\n,,
0.159099,S,,
0.159358,W,,
0.159617,D,,
0.159876,R,,
0.160135,7,,
0.160394,F,,
0.160653,0,,
0.160912,1,,
0.161171,0,,
0.161429,0,,
0.161688,\r,,
0.161947,\n,,
0.169083,S,,
0.169342,W,,
0.169601,D,,
0.16986,R,,
0.170119,8,,
0.170378,0,,
0.170637,0,,
0.170896,1,,
0.171154,0,,
0.171413,0,,
0.171672,\r,,
0.171931,\n,,
0.179014,S,,
0.179273,W,,
0.179531,D,,
0.17979,R,,
0.180049,7,,
0.180308,F,,
0.180567,0,,
0.180826,1,,
0.181085,0,,
0.181344,0,,
0.181603,\r,,
0.181862,\n,,
0.238786,S,,
0.239045,W,,
0.239303,D,,
0.239562,R,,
0.239821,7,,
0.24008,E,,
0.240339,0,,
0.240598,1,,
0.240857,0,,
0.241116,0,,
0.241375,\r,,
0.241634,\n,,
0.24877,S,,
0.249029,W,,
0.249288,D,,
0.249547,R,,
0.249806,7,,
0.250064,F,,
0.250323,0,,
0.250582,1,,
0.250841,0,,
0.2511,0,,
0.251359,\r,,
0.251618,\n,,
0.258701,S,,
0.258961,W,,
0.25922,D,,
0.259479,R,,
0.259738,7,,
0.259997,E,,
0.260255,0,,
0.260514,1,,
0.260773,0,,
0.261032,0,,
0.261291,\r,,
0.26155,\n,,
0.26866,S,,
0.268919,W,,
0.269178,D,,
0.269437,R,,
0.269696,7,,
0.269955,F,,
0.270213,0,,
0.270472,1,,
0.270731,0,,
0.27099,0,,
0.271249,\r,,
0.271508,\n,,
0.278616,S,,
0.278875,W,,
0.279134,D,,
0.279393,R,,
0.279652,7,,
0.279911,E,,
0.28017,0,,
0.280429,1,,
0.280688,0,,
0.280947,0,,
0.281205,\r,,
0.281464,\n,,
0.288574,S,,
0.288833,W,,
0.289092,D,,
0.289351,R,,
0.28961,7,,
0.289869,F,,
0.290128,0,,
0.290387,1,,
0.290646,0,,
0.290905,0,,
0.291164,\r,,
0.291422,\n,,
0.29856,S,,
0.298819,W,,
0.299078,D,,
0.299337,R,,
0.299596,7,,
0.299855,E,,
0.300113,0,,
0.300372,1,,
0.300631,0,,
0.30089,0,,
0.301149,\r,,
0.301408,\n,,
0.318449,S,,
0.318707,W,,
0.318966,D,,
0.319225,R,,
0.319484,7,,
0.319743,F,,
0.320002,0,,
0.32026,1,,
0.320521,0,,
0.320779,0,,
0.321038,\r,,
0.321296,\n,,
0.328407,S,,
0.328666,W,,
0.328925,D,,
0.329184,R,,
0.329443,7,,
0.329701,E,,
0.32996,0,,
0.330219,1,,
0.330478,0,,
0.330737,0,,
0.330996,\r,,
0.331255,\n,,
0.33839,S,,
0.338649,W,,
0.338908,D,,
0.339167,R,,
0.339426,7,,
0.339685,F,,
0.339944,0,,
0.340202,1,,
0.340462,0,,
0.340721,0,,
0.34098,\r,,
0.341238,\n,,
0.348323,S,,
0.348582,W,,
0.34884,D,,
0.349099,R,,
0.349358,7,,
0.349617,E,,
0.349876,0,,
0.350135,1,,
0.350394,0,,
0.350653,0,,
0.350912,\r,,
0.35117,\n,,
0.358281,S,,
0.35854,W,,
0.358798,D,,
0.359057,R,,
0.359316,7,,
0.359575,F,,
0.359834,0,,
0.360093,1,,
0.360352,0,,
0.360611,0,,
0.36087,\r,,
0.361129,\n,,
0.4479,S,,
0.448159,W,,
0.448417,D,,
0.448676,R,,
0.448935,7,,
0.449194,E,,
0.449453,0,,
0.449712,1,,
0.449971,0,,
0.450229,0,,
0.450488,\r,,
0.450747,\n,,
0.457884,S,,
0.458142,W,,
0.458401,D,,
0.45866,R,,
0.458919,7,,
0.459178,F,,
0.459437,0,,
0.459696,1,,
0.459955,0,,
0.460214,0,,
0.460472,\r,,
0.460731,\n,,
0.467814,S,,
0.468073,W,,
0.468332,D,,
0.468591,R,,
0.46885,7,,
0.469109,E,,
0.469368,0,,
0.469626,1,,
0.469885,0,,
0.470144,0,,
0.470403,\r,,
0.470662,\n,,
0.587306,S,,
0.587565,W,,
0.587823,D,,
0.588083,R,,
0.588341,7,,
0.5886,F,,
0.588859,0,,
0.589118,1,,
0.589377,0,,
0.589636,0,,
0.589895,\r,,
0.590153,\n,,
0.597262,S,,
0.597521,W,,
0.59778,D,,
0.598039,R,,
0.598298,7,,
0.598557,E,,
0.598815,0,,
0.599074,1,,
0.599333,0,,
0.599592,0,,
0.599851,\r,,
0.60011,\n,,
0.60722,S,,
0.607479,W,,
0.607738,D,,
0.607997,R,,
0.608256,7,,
0.608514,F,,
0.608773,0,,
0.609032,1,,
0.609291,0,,
0.60955,0,,
0.609809,\r,,
0.610068,\n,,
0.627135,S,,
0.627393,W,,
0.627652,D,,
0.627911,R,,
0.62817,7,,
0.628429,E,,
0.628688,0,,
0.628947,1,,
0.629206,0,,
0.629465,0,,
0.629724,\r,,
0.629982,\n,,
0.637092,S,,
0.637351,W,,
0.63761,D,,
0.637869,R,,
0.638128,7,,
0.638387,F,,
0.638646,0,,
0.638905,1,,
0.639163,0,,
0.639423,0,,
0.639682,\r,,
0.63994,\n,,
0.647051,S,,
0.647309,W,,
0.647568,D,,
0.647827,R,,
0.648086,7,,
0.648345,E,,
0.648604,0,,
0.648863,1,,
0.649122,0,,
0.649381,0,,
0.649639,\r,,
0.649898,\n,,
0.657009,S,,
0.657267,W,,
0.657526,D,,
0.657785,R,,
0.658044,7,,
0.658303,F,,
0.658562,0,,
0.65882,1,,
0.65908,0,,
0.659339,0,,
0.659598,\r,,
0.659856,\n,,
0.666965,S,,
0.667224,W,,
0.667483,D,,
0.667742,R,,
0.668001,7,,
0.668259,E,,
0.668518,0,,
0.668777,1,,
0.669036,0,,
0.669295,0,,
0.669554,\r,,
0.669813,\n,,
0.676902,S,,
0.677161,W,,
0.67742,D,,
0.677679,R,,
0.677938,7,,
0.678197,F,,
0.678455,0,,
0.678715,1,,
0.678974,0,,
0.679233,0,,
0.679491,\r,,
0.67975,\n,,
0.68686,S,,
0.687119,W,,
0.687378,D,,
0.687637,R,,
0.687896,7,,
0.688154,E,,
0.688413,0,,
0.688672,1,,
0.688931,0,,
0.68919,0,,
0.689449,\r,,
0.689708,\n,,
0.736648,S,,
0.736907,W,,
0.737166,D,,
0.737425,R,,
0.737684,7,,
0.737943,D,,
0.738202,0,,
0.738461,1,,
0.73872,0,,
0.738978,0,,
0.739237,\r,,
0.739496,\n,,
0.746606,S,,
0.746865,W,,
0.747124,D,,
0.747383,R,,
0.747642,7,,
0.747901,E,,
0.74816,0,,
0.748419,1,,
0.748678,0,,
0.748937,0,,
0.749195,\r,,
0.749454,\n,,
0.756566,S,,
0.756825,W,,
0.757084,D,,
0.757343,R,,
0.757602,7,,
0.757861,D,,
0.758119,0,,
0.758378,1,,
0.758637,0,,
0.758896,0,,
0.759155,\r,,
0.759414,\n,,
0.766534,S,,
0.766793,W,,
0.767052,D,,
0.76731,R,,
0.767569,7,,
0.767828,E,,
0.768087,0,,
0.768346,1,,
0.768605,0,,
0.768865,0,,
0.769124,\r,,
0.769382,\n,,
0.77648,S,,
0.776739,W,,
0.776998,D,,
0.777257,R,,
0.777516,7,,
0.777775,D,,
0.778034,0,,
0.778293,1,,
0.778552,0,,
0.778811,0,,
0.779069,\r,,
0.779328,\n,,
0.7964,S,,
0.796658,W,,
0.796917,D,,
0.797177,R,,
0.797435,7,,
0.797694,E,,
0.797953,0,,
0.798212,1,,
0.798471,0,,
0.79873,0,,
0.798989,\r,,
0.799248,\n,,
0.806371,S,,
0.80663,W,,
0.806888,D,,
0.807147,R,,
0.807406,7,,
0.807665,D,,
0.807924,0,,
0.808183,1,,
0.808442,0,,
0.808701,0,,
0.80896,\r,,
0.809219,\n,,
0.816314,S,,
0.816573,W,,
0.816832,D,,
0.817091,R,,
0.81735,7,,
0.817609,E,,
0.817868,0,,
0.818126,1,,
0.818385,0,,
0.818644,0,,
0.818903,\r,,
0.819162,\n,,
0.856143,S,,
0.856402,W,,
0.856661,D,,
0.85692,R,,
0.857179,7,,
0.857437,F,,
0.857696,0,,
0.857955,1,,
0.858214,0,,
0.858473,0,,
0.858732,\r,,
0.858991,\n,,
0.866101,S,,
0.86636,W,,
0.866619,D,,
0.866878,R,,
0.867137,7,,
0.867395,E,,
0.867654,0,,
0.867913,1,,
0.868172,0,,
0.868431,0,,
0.86869,\r,,
0.868949,\n,,
0.876067,S,,
0.876326,W,,
0.876585,D,,
0.876844,R,,
0.877103,7,,
0.877362,F,,
0.87762,0,,
0.877879,1,,
0.878138,0,,
0.878397,0,,
0.878656,\r,,
0.878915,\n,,
0.896049,S,,
0.896308,W,,
0.896567,D,,
0.896826,R,,
0.897085,7,,
0.897344,E,,
0.897603,0,,
0.897862,1,,
0.898121,0,,
0.89838,0,,
0.898638,\r,,
0.898897,\n,,
0.905931,S,,
0.90619,W,,
0.906449,D,,
0.906708,R,,
0.906967,7,,
0.907226,F,,
0.907485,0,,
0.907744,1,,
0.908003,0,,
0.908262,0,,
0.90852,\r,,
0.908779,\n,,
0.926032,S,,
0.926291,W,,
0.926549,D,,
0.926808,R,,
0.927067,7,,
0.927326,E,,
0.927585,0,,
0.927844,1,,
0.928103,0,,
0.928362,0,,
0.928621,\r,,
0.92888,\n,,
0.935911,S,,
0.936169,W,,
0.936428,D,,
0.936687,R,,
0.936946,7,,
0.937205,F,,
0.937464,0,,
0.937723,1,,
0.937982,0,,
0.938241,0,,
0.9385,\r,,
0.938758,\n,,
0.945974,S,,
0.946233,W,,
0.946492,D,,
0.94675,R,,
0.947009,7,,
0.947268,E,,
0.947527,0,,
0.947786,1,,
0.948045,0,,
0.948304,0,,
0.948563,\r,,
0.948822,\n,,
0.995762,S,,
0.996021,W,,
0.99628,D,,
0.996539,R,,
0.996798,7,,
0.997057,D,,
0.997316,0,,
0.997574,1,,
0.997833,0,,
0.998092,0,,
0.998351,\r,,
0.99861,\n,,
1.015533,S,,
1.015791,W,,
1.01605,D,,
1.016309,R,,
1.016568,7,,
1.016827,E,,
1.017086,0,,
1.017345,1,,
1.017604,0,,
1.017863,0,,
1.018122,\r,,
1.018381,\n,,
1.025486,S,,
1.025745,W,,
1.026004,D,,
1.026262,R,,
1.026521,7,,
1.02678,C,,
1.027039,0,,
1.027298,1,,
1.027557,0,,
1.027816,0,,
1.028075,\r,,
1.028334,\n,,
1.035408,S,,
1.035667,W,,
1.035926,D,,
1.036185,R,,
1.036444,7,,
1.036703,D,,
1.036962,0,,
1.03722,1,,
1.037479,0,,
1.037738,0,,
1.037997,\r,,
1.038256,\n,,
1.065313,S,,
1.065572,W,,
1.065831,D,,
1.06609,R,,
1.066349,7,,
1.066607,E,,
1.066867,0,,
1.067125,1,,
1.067384,0,,
1.067643,0,,
1.067902,\r,,
1.068161,\n,,
1.105113,S,,
1.105372,W,,
1.10563,D,,
1.105889,R,,
1.106148,7,,
1.106407,F,,
1.106666,0,,
1.106925,1,,
1.107184,0,,
1.107443,0,,
1.107702,\r,,
1.107961,\n,,
1.144943,S,,
1.145202,W,,
1.145461,D,,
1.14572,R,,
1.145979,7,,
1.146238,E,,
1.146497,0,,
1.146755,1,,
1.147014,0,,
1.147273,0,,
1.147532,\r,,
1.147791,\n,,
1.154929,S,,
1.155188,W,,
1.155446,D,,
1.155705,R,,
1.155964,7,,
1.156223,F,,
1.156482,0,,
1.156741,1,,
1.157,0,,
1.157259,0,,
1.157518,\r,,
1.157776,\n,,
1.174817,S,,
1.175076,W,,
1.175335,D,,
1.175594,R,,
1.175853,7,,
1.176112,E,,
1.176371,0,,
1.176629,1,,
1.176888,0,,
1.177147,0,,
1.177406,\r,,
1.177665,\n,,
1.194757,S,,
1.195016,W,,
1.195275,D,,
1.195534,R,,
1.195793,7,,
1.196052,F,,
1.196311,0,,
1.19657,1,,
1.196828,0,,
1.197087,0,,
1.197346,\r,,
1.197605,\n,,
1.204719,S,,
1.204978,W,,
1.205237,D,,
1.205495,R,,
1.205754,7,,
1.206013,E,,
1.206272,0,,
1.206531,1,,
1.20679,0,,
1.207049,0,,
1.207308,\r,,
1.207567,\n,,
1.234591,S,,
1.23485,W,,
1.235109,D,,
1.235368,R,,
1.235627,7,,
1.235886,D,,
1.236145,0,,
1.236404,1,,
1.236662,0,,
1.236921,0,,
1.23718,\r,,
1.237439,\n,,
1.244547,S,,
1.244807,W,,
1.245065,D,,
1.245324,R,,
1.245583,7,,
1.245842,E,,
1.246101,0,,
1.24636,1,,
1.246619,0,,
1.246878,0,,
1.247137,\r,,
1.247396,\n,,
1.254505,S,,
1.254764,W,,
1.255023,D,,
1.255282,R,,
1.255541,7,,
1.2558,D,,
1.256059,0,,
1.256318,1,,
1.256577,0,,
1.256836,0,,
1.257095,\r,,
1.257354,\n,,
1.294311,S,,
1.294569,W,,
1.294829,D,,
1.295087,R,,
1.295346,7,,
1.295605,E,,
1.295864,0,,
1.296122,1,,
1.296381,0,,
1.29664,0,,
1.296899,\r,,
1.297158,\n,,
1.304268,S,,
1.304527,W,,
1.304786,D,,
1.305045,R,,
1.305304,7,,
1.305563,D,,
1.305821,0,,
1.30608,1,,
1.306339,0,,
1.306598,0,,
1.306857,\r,,
1.307116,\n,,
1.314224,S,,
1.314483,W,,
1.314742,D,,
1.315001,R,,
1.31526,7,,
1.315519,E,,
1.315778,0,,
1.316037,1,,
1.316296,0,,
1.316555,0,,
1.316813,\r,,
1.317072,\n,,
1.324184,S,,
1.324443,W,,
1.324702,D,,
1.324961,R,,
1.32522,7,,
1.325479,D,,
1.325737,0,,
1.325996,1,,
1.326255,0,,
1.326514,0,,
1.326773,\r,,
1.327032,\n,,
1.33414,S,,
1.334399,W,,
1.334658,D,,
1.334917,R,,
1.335176,7,,
1.335435,F,,
1.335694,0,,
1.335953,1,,
1.336212,0,,
1.336471,0,,
1.336729,\r,,
1.336988,\n,,
1.344102,S,,
1.344361,W,,
1.344619,D,,
1.344878,R,,
1.345137,7,,
1.345396,E,,
1.345655,0,,
1.345914,1,,
1.346173,0,,
1.346432,0,,
1.346691,\r,,
1.34695,\n,,
1.354084,S,,
1.354343,W,,
1.354602,D,,
1.354861,R,,
1.35512,7,,
1.355378,F,,
1.355637,0,,
1.355896,1,,
1.356155,0,,
1.356414,0,,
1.356673,\r,,
1.356932,\n,,
1.443709,S,,
1.443968,W,,
1.444227,D,,
1.444486,R,,
1.444745,7,,
1.445004,E,,
1.445263,0,,
1.445522,1,,
1.44578,0,,
1.446039,0,,
1.446298,\r,,
1.446557,\n,,
1.523338,S,,
1.523597,W,,
1.523856,D,,
1.524114,R,,
1.524373,7,,
1.524632,D,,
1.524891,0,,
1.52515,1,,
1.525409,0,,
1.525668,0,,
1.525927,\r,,
1.526186,\n,,
1.533297,S,,
1.533556,W,,
1.533815,D,,
1.534074,R,,
1.534333,7,,
1.534592,E,,
1.534851,0,,
1.53511,1,,
1.535369,0,,
1.535628,0,,
1.535886,\r,,
1.536145,\n,,
1.543281,S,,
1.54354,W,,
1.543799,D,,
1.544058,R,,
1.544318,7,,
1.544576,D,,
1.544835,0,,
1.545094,1,,
1.545353,0,,
1.545611,0,,
1.54587,\r,,
1.546129,\n,,
1.553238,S,,
1.553497,W,,
1.553756,D,,
1.554014,R,,
1.554273,7,,
1.554532,E,,
1.554791,0,,
1.55505,1,,
1.555309,0,,
1.555568,0,,
1.555827,\r,,
1.556086,\n,,
1.56317,S,,
1.563429,W,,
1.563688,D,,
1.563947,R,,
1.564206,7,,
1.564464,D,,
1.564723,0,,
1.564982,1,,
1.565241,0,,
1.5655,0,,
1.565759,\r,,
1.566018,\n,,
1.573128,S,,
1.573387,W,,
1.573646,D,,
1.573905,R,,
1.574164,7,,
1.574422,E,,
1.574681,0,,
1.57494,1,,
1.575199,0,,
1.575458,0,,
1.575717,\r,,
1.575976,\n,,
1.583086,S,,
1.583345,W,,
1.583604,D,,
1.583863,R,,
1.584122,7,,
1.58438,D,,
1.584639,0,,
1.584898,1,,
1.585157,0,,
1.585416,0,,
1.585675,\r,,
1.585934,\n,,
1.593044,S,,
1.593303,W,,
1.593562,D,,
1.593821,R,,
1.59408,7,,
1.594338,E,,
1.594597,0,,
1.594856,1,,
1.595115,0,,
1.595374,0,,
1.595633,\r,,
1.595891,\n,,
1.612984,S,,
1.613243,W,,
1.613502,D,,
1.613761,R,,
1.61402,7,,
1.614279,D,,
1.614538,0,,
1.614797,1,,
1.615055,0,,
1.615314,0,,
1.615573,\r,,
1.615832,\n,,
1.622916,S,,
1.623175,W,,
1.623435,D,,
1.623693,R,,
1.623953,7,,
1.624211,E,,
1.62447,0,,
1.624729,1,,
1.624988,0,,
1.625246,0,,
1.625505,\r,,
1.625764,\n,,
1.632875,S,,
1.633133,W,,
1.633393,D,,
1.633651,R,,
1.63391,7,,
1.634169,F,,
1.634428,0,,
1.634687,1,,
1.634946,0,,
1.635205,0,,
1.635463,\r,,
1.635722,\n,,
1.642831,S,,
1.64309,W,,
1.643349,D,,
1.643608,R,,
1.643866,7,,
1.644125,E,,
1.644384,0,,
1.644643,1,,
1.644902,0,,
1.645161,0,,
1.64542,\r,,
1.645679,\n,,
1.662757,S,,
1.663015,W,,
1.663274,D,,
1.663533,R,,
1.663792,7,,
1.664051,F,,
1.66431,0,,
1.664569,1,,
1.664828,0,,
1.665087,0,,
1.665346,\r,,
1.665604,\n,,
1.672705,S,,
1.672964,W,,
1.673223,D,,
1.673481,R,,
1.67374,7,,
1.673999,E,,
1.674258,0,,
1.674517,1,,
1.674776,0,,
1.675035,0,,
1.675294,\r,,
1.675553,\n,,
1.692621,S,,
1.69288,W,,
1.693138,D,,
1.693397,R,,
1.693656,7,,
1.693915,F,,
1.694174,0,,
1.694433,1,,
1.694692,0,,
1.694951,0,,
1.69521,\r,,
1.695469,\n,,
1.702579,S,,
1.702838,W,,
1.703097,D,,
1.703356,R,,
1.703614,7,,
1.703873,E,,
1.704132,0,,
1.704392,1,,
1.70465,0,,
1.704909,0,,
1.705168,\r,,
1.705427,\n,,
1.74241,S,,
1.742668,W,,
1.742927,D,,
1.743186,R,,
1.743445,7,,
1.743704,F,,
1.743963,0,,
1.744221,1,,
1.74448,0,,
1.744739,0,,
1.744998,\r,,
1.745257,\n,,
1.752367,S,,
1.752626,W,,
1.752885,D,,
1.753144,R,,
1.753403,7,,
1.753662,E,,
1.753921,0,,
1.754179,1,,
1.754439,0,,
1.754697,0,,
1.754956,\r,,
1.755216,\n,,
1.772295,S,,
1.772553,W,,
1.772812,D,,
1.773071,R,,
1.77333,7,,
1.773589,D,,
1.773848,0,,
1.774107,1,,
1.774365,0,,
1.774625,0,,
1.774884,\r,,
1.775142,\n,,
1.782267,S,,
1.782526,W,,
1.782785,D,,
1.783044,R,,
1.783303,7,,
1.783562,E,,
1.783821,0,,
1.784079,1,,
1.784338,0,,
1.784597,0,,
1.784856,\r,,
1.785115,\n,,
1.861928,S,,
1.862187,W,,
1.862446,D,,
1.862705,R,,
1.862964,7,,
1.863222,F,,
1.863482,0,,
1.86374,1,,
1.863999,0,,
1.864259,0,,
1.864517,\r,,
1.864776,\n,,
1.87186,S,,
1.872119,W,,
1.872378,D,,
1.872637,R,,
1.872896,7,,
1.873155,E,,
1.873414,0,,
1.873673,1,,
1.873931,0,,
1.87419,0,,
1.874449,\r,,
1.874708,\n,,
1.891802,S,,
1.892061,W,,
1.89232,D,,
1.892579,R,,
1.892838,7,,
1.893097,F,,
1.893356,0,,
1.893615,1,,
1.893873,0,,
1.894132,0,,
1.894391,\r,,
1.89465,\n,,
1.901733,S,,
1.901992,W,,
1.902251,D,,
1.902509,R,,
1.902768,7,,
1.903027,E,,
1.903286,0,,
1.903545,1,,
1.903804,0,,
1.904063,0,,
1.904322,\r,,
1.904581,\n,,
1.921649,S,,
1.921908,W,,
1.922166,D,,
1.922425,R,,
1.922684,7,,
1.922943,F,,
1.923202,0,,
1.923461,1,,
1.923719,0,,
1.923979,0,,
1.924238,\r,,
1.924497,\n,,
1.931607,S,,
1.931866,W,,
1.932124,D,,
1.932383,R,,
1.932642,7,,
1.932901,E,,
1.93316,0,,
1.933419,1,,
1.933678,0,,
1.933937,0,,
1.934196,\r,,
1.934455,\n,,
1.981423,S,,
1.981681,W,,
1.98194,D,,
1.982199,R,,
1.982458,7,,
1.982717,D,,
1.982976,0,,
1.983235,1,,
1.983494,0,,
1.983753,0,,
1.984012,\r,,
1.98427,\n,,
1.991353,S,,
1.991612,W,,
1.991871,D,,
1.99213,R,,
1.992389,7,,
1.992648,E,,
1.992906,0,,
1.993165,1,,
1.993424,0,,
1.993683,0,,
1.993942,\r,,
1.994201,\n,,
2.001311,S,,
2.00157,W,,
2.001829,D,,
2.002088,R,,
2.002347,7,,
2.002606,D,,
2.002864,0,,
2.003123,1,,
2.003382,0,,
2.003641,0,,
2.0039,\r,,
2.004159,\n,,
2.021227,S,,
2.021486,W,,
2.021744,D,,
2.022003,R,,
2.022262,7,,
2.022522,E,,
2.02278,0,,
2.023039,1,,
2.023298,0,,
2.023557,0,,
2.023816,\r,,
2.024075,\n,,
2.031183,S,,
2.031442,W,,
2.031701,D,,
2.03196,R,,
2.032219,7,,
2.032478,D,,
2.032737,0,,
2.032996,1,,
2.033255,0,,
2.033514,0,,
2.033772,\r,,
2.034031,\n,,
2.041169,S,,
2.041428,W,,
2.041687,D,,
2.041946,R,,
2.042205,7,,
2.042463,E,,
2.042722,0,,
2.042981,1,,
2.04324,0,,
2.043499,0,,
2.043758,\r,,
2.044017,\n,,
2.051099,S,,
2.051358,W,,
2.051617,D,,
2.051876,R,,
2.052135,7,,
2.052394,D,,
2.052653,0,,
2.052912,1,,
2.05317,0,,
2.053429,0,,
2.053688,\r,,
2.053947,\n,,
2.061057,S,,
2.061316,W,,
2.061575,D,,
2.061834,R,,
2.062093,7,,
2.062352,E,,
2.062611,0,,
2.06287,1,,
2.063129,0,,
2.063388,0,,
2.063646,\r,,
2.063905,\n,,
2.071015,S,,
2.071274,W,,
2.071533,D,,
2.071792,R,,
2.072051,7,,
2.07231,D,,
2.072569,0,,
2.072828,1,,
2.073087,0,,
2.073346,0,,
2.073604,\r,,
2.073863,\n,,
2.080973,S,,
2.081232,W,,
2.081491,D,,
2.08175,R,,
2.082009,7,,
2.082268,E,,
2.082527,0,,
2.082786,1,,
2.083045,0,,
2.083304,0,,
2.083562,\r,,
2.083821,\n,,
2.100888,S,,
2.101147,W,,
2.101406,D,,
2.101664,R,,
2.101923,7,,
2.102182,F,,
2.102441,0,,
2.1027,1,,
2.102959,0,,
2.103218,0,,
2.103477,\r,,
2.103736,\n,,
2.110847,S,,
2.111106,W,,
2.111365,D,,
2.111624,R,,
2.111883,7,,
2.112142,E,,
2.112401,0,,
2.11266,1,,
2.112919,0,,
2.113178,0,,
2.113436,\r,,
2.113695,\n,,
2.120831,S,,
2.12109,W,,
2.121349,D,,
2.121608,R,,
2.121867,7,,
2.122126,F,,
2.122385,0,,
2.122644,1,,
2.122903,0,,
2.123161,0,,
2.12342,\r,,
2.123679,\n,,
2.160636,S,,
2.160895,W,,
2.161154,D,,
2.161413,R,,
2.161671,7,,
2.16193,E,,
2.162189,0,,
2.162448,1,,
2.162707,0,,
2.162966,0,,
2.163225,\r,,
2.163484,\n,,
2.170605,S,,
2.170864,W,,
2.171123,D,,
2.171382,R,,
2.171641,7,,
2.1719,F,,
2.172159,0,,
2.172417,1,,
2.172676,0,,
2.172935,0,,
2.173194,\r,,
2.173453,\n,,
2.190508,S,,
2.190767,W,,
2.191026,D,,
2.191285,R,,
2.191544,7,,
2.191803,E,,
2.192062,0,,
2.19232,1,,
2.192579,0,,
2.192838,0,,
2.193097,\r,,
2.193356,\n,,
2.200466,S,,
2.200725,W,,
2.200984,D,,
2.201243,R,,
2.201502,7,,
2.201761,F,,
2.20202,0,,
2.202278,1,,
2.202537,0,,
2.202796,0,,
2.203055,\r,,
2.203314,\n,,
2.21045,S,,
2.210709,W,,
2.210968,D,,
2.211227,R,,
2.211486,7,,
2.211745,E,,
2.212003,0,,
2.212262,1,,
2.212521,0,,
2.21278,0,,
2.213039,\r,,
2.213298,\n,,
2.220382,S,,
2.220641,W,,
2.2209,D,,
2.221159,R,,
2.221418,7,,
2.221677,F,,
2.221936,0,,
2.222194,1,,
2.222453,0,,
2.222712,0,,
2.222971,\r,,
2.22323,\n,,
2.230339,S,,
2.230597,W,,
2.230856,D,,
2.231115,R,,
2.231374,7,,
2.231633,E,,
2.231892,0,,
2.232151,1,,
2.23241,0,,
2.232668,0,,
2.232927,\r,,
2.233186,\n,,
2.29009,S,,
2.290349,W,,
2.290607,D,,
2.290866,R,,
2.291125,7,,
2.291384,D,,
2.291643,0,,
2.291902,1,,
2.292161,0,,
2.29242,0,,
2.292679,\r,,
2.292938,\n,,
2.300051,S,,
2.30031,W,,
2.300569,D,,
2.300828,R,,
2.301087,7,,
2.301345,E,,
2.301604,0,,
2.301863,1,,
2.302122,0,,
2.302381,0,,
2.30264,\r,,
2.302899,\n,,
2.310001,S,,
2.31026,W,,
2.310519,D,,
2.310777,R,,
2.311036,7,,
2.311295,D,,
2.311554,0,,
2.311813,1,,
2.312072,0,,
2.312331,0,,
2.31259,\r,,
2.312849,\n,,
2.329917,S,,
2.330176,W,,
2.330435,D,,
2.330693,R,,
2.330952,7,,
2.331211,E,,
2.33147,0,,
2.331729,1,,
2.331988,0,,
2.332247,0,,
2.332506,\r,,
2.332765,\n,,
2.339901,S,,
2.34016,W,,
2.340418,D,,
2.340677,R,,
2.340936,7,,
2.341195,D,,
2.341454,0,,
2.341713,1,,
2.341972,0,,
2.342231,0,,
2.34249,\r,,
2.342749,\n,,
2.379733,S,,
2.379992,W,,
2.380251,D,,
2.380509,R,,
2.380768,7,,
2.381027,E,,
2.381286,0,,
2.381545,1,,
2.381804,0,,
2.382063,0,,
2.382322,\r,,
2.382581,\n,,
2.389665,S,,
2.389924,W,,
2.390183,D,,
2.390442,R,,
2.3907,7,,
2.390959,D,,
2.391218,0,,
2.391477,1,,
2.391736,0,,
2.391995,0,,
2.392254,\r,,
2.392513,\n,,
2.399647,S,,
2.399906,W,,
2.400165,D,,
2.400424,R,,
2.400682,7,,
2.400942,E,,
2.401201,0,,
2.401459,1,,
2.401718,0,,
2.401977,0,,
2.402236,\r,,
2.402495,\n,,
2.42951,S,,
2.429769,W,,
2.430028,D,,
2.430287,R,,
2.430546,7,,
2.430804,D,,
2.431063,0,,
2.431322,1,,
2.431581,0,,
2.43184,0,,
2.432099,\r,,
2.432358,\n,,
2.439478,S,,
2.439737,W,,
2.439995,D,,
2.440254,R,,
2.440513,7,,
2.440772,E,,
2.441031,0,,
2.44129,1,,
2.441549,0,,
2.441808,0,,
2.442067,\r,,
2.442326,\n,,
2.489251,S,,
2.48951,W,,
2.489769,D,,
2.490028,R,,
2.490287,7,,
2.490546,F,,
2.490805,0,,
2.491064,1,,
2.491323,0,,
2.491582,0,,
2.491841,\r,,
2.4921,\n,,
2.499226,S,,
2.499484,W,,
2.499743,D,,
2.500002,R,,
