Time [s],Value,Parity Error,Framing Error
0.033855,L,,
0.034115,C,,
0.034375,S,,
0.034636,A,,
0.034896,'250',,
0.035156,Q,,
0.035416,'160',,
0.035676,'0',,
0.035936,\n,,
0.036196,h,,
0.036456,'29',,
0.036716,'232',,
0.036976,'30',,
0.037236,'185',,
0.037496,'155',,
0.037756,'232',,
0.038016,'31',,
0.038276,'248',,
0.038536,'0',,
0.038796,'0',,
0.039056,'0',,
0.039316,'0',,
0.039576,'225',,
0.039836,'142',,
0.040096,a,,
0.040356,'141',,
0.040616,'225',,
0.040876,'140',,
0.041136,'176',,
0.041396,'139',,
0.041656,'19',,
0.041916,'140',,
0.042176,'4',,
0.042436,'8',,
0.096268,L,,
0.096528,C,,
0.096788,S,,
0.097048,A,,
0.097308,'250',,
0.097568,Q,,
0.097828,'160',,
0.098088,'0',,
0.098348,\n,,
0.098608,h,,
0.098868,'29',,
0.099128,'232',,
0.099388,'30',,
0.099648,'185',,
0.099908,'155',,
0.100168,'232',,
0.100428,'31',,
0.100688,'248',,
0.100949,'0',,
0.101209,'0',,
0.101469,'0',,
0.101729,'0',,
0.101989,'160',,
0.102249,'128',,
0.102509,a,,
0.102769,'141',,
0.103029,'225',,
0.103289,'140',,
0.103549,'176',,
0.103809,'139',,
0.104069,'19',,
0.104329,'140',,
0.104589,'4',,
0.104849,'8',,
0.146274,L,,
0.146534,C,,
0.146794,S,,
0.147054,A,,
0.147314,'250',,
0.147574,Q,,
0.147834,'160',,
0.148094,'0',,
0.148354,\n,,
0.148614,h,,
0.148875,'29',,
0.149135,'232',,
0.149395,'30',,
0.149655,'185',,
0.149915,'155',,
0.150174,'232',,
0.150435,'31',,
0.150695,'248',,
0.150955,'0',,
0.151215,'0',,
0.151475,'0',,
0.151735,'0',,
0.151995,a,,
0.152255,'142',,
0.152515,a,,
0.152775,'141',,
0.153035,'225',,
0.153295,'140',,
0.153555,'176',,
0.153815,'139',,
0.154075,'19',,
0.154335,'140',,
0.154595,'4',,
0.154855,'8',,
0.166275,L,,
0.166535,C,,
0.166795,S,,
0.167055,A,,
0.167315,'250',,
0.167575,Q,,
0.167835,'160',,
0.168095,'0',,
0.168355,\n,,
0.168615,h,,
0.168875,'29',,
0.169135,'232',,
0.169395,'30',,
0.169655,'185',,
0.169916,'155',,
0.170175,'232',,
0.170436,'31',,
0.170696,'248',,
0.170956,'0',,
0.171216,'0',,
0.171476,'0',,
0.171736,'0',,
0.171996,a,,
0.172256,'140',,
0.172516,a,,
0.172776,'141',,
0.173036,'225',,
0.173296,'140',,
0.173556,'176',,
0.173816,'139',,
0.174076,'19',,
0.174336,'140',,
0.174596,'4',,
0.174856,'8',,
0.186276,L,,
0.186536,C,,
0.186796,S,,
0.187056,A,,
0.187316,'250',,
0.187576,Q,,
0.187836,'160',,
0.188096,'0',,
0.188356,\n,,
0.188616,h,,
0.188876,'29',,
0.189136,'232',,
0.189396,'30',,
0.189656,'185',,
0.189916,'155',,
0.190176,'232',,
0.190436,'31',,
0.190696,'248',,
0.190956,'0',,
0.191216,'0',,
0.191476,'0',,
0.191736,'0',,
0.191997,'224',,
0.192257,'12',,
0.192517,a,,
0.192777,'141',,
0.193037,'225',,
0.193297,'140',,
0.193557,'176',,
0.193817,'139',,
0.194077,'19',,
0.194337,'140',,
0.194597,'4',,
0.194857,'8',,
0.196427,L,,
0.196687,C,,
0.196947,S,,
0.197207,A,,
0.197467,'250',,
0.197727,Q,,
0.197987,'160',,
0.198247,'0',,
0.198507,\n,,
0.198767,h,,
0.199027,'29',,
0.199287,'232',,
0.199547,'30',,
0.199807,'185',,
0.200067,'155',,
0.200327,'232',,
0.200587,'31',,
0.200847,'248',,
0.201107,'0',,
0.201367,'0',,
0.201627,'0',,
0.201887,'0',,
0.202147,'225',,
0.202407,'132',,
0.202667,a,,
0.202927,'141',,
0.203187,'225',,
0.203447,'140',,
0.203707,'176',,
0.203967,'139',,
0.204227,'19',,
0.204487,'140',,
0.204748,'4',,
0.205008,'8',,
0.206441,L,,
0.206701,C,,
0.206961,S,,
0.207221,A,,
0.207481,'250',,
0.207741,Q,,
0.208001,'160',,
0.208261,'0',,
0.208521,\n,,
0.208781,h,,
0.209041,'29',,
0.209301,'232',,
0.209561,'30',,
0.209821,'185',,
0.210081,'155',,
0.210341,'232',,
0.210601,'31',,
0.210861,'248',,
0.211121,'0',,
0.211381,'0',,
0.211641,'0',,
0.211901,'0',,
0.212162,'193',,
0.212422,'134',,
0.212682,a,,
0.212942,'141',,
0.213202,'225',,
0.213462,'140',,
0.213722,'176',,
0.213982,'139',,
0.214242,'19',,
0.214502,'140',,
0.214762,'4',,
0.215022,'8',,
0.216442,L,,
0.216702,C,,
0.216962,S,,
0.217222,A,,
0.217482,'250',,
0.217742,Q,,
0.218002,'160',,
0.218262,'0',,
0.218522,\n,,
0.218782,h,,
0.219042,'29',,
0.219302,'232',,
0.219562,'30',,
0.219823,'185',,
0.220083,'155',,
0.220343,'232',,
0.220603,'31',,
0.220863,'248',,
0.221123,'0',,
0.221383,'0',,
0.221643,'0',,
0.221903,'0',,
0.222163,'160',,
0.222423,'0',,
0.222683,a,,
0.222943,'141',,
0.223203,'225',,
0.223463,'140',,
0.223723,'176',,
0.223983,'139',,
0.224243,'19',,
0.224503,'140',,
0.224763,'4',,
0.225023,'8',,
0.226442,L,,
0.226702,C,,
0.226962,S,,
0.227222,A,,
0.227482,'250',,
0.227742,Q,,
0.228002,'160',,
0.228262,'0',,
0.228522,\n,,
0.228782,h,,
0.229042,'29',,
0.229302,'232',,
0.229562,'30',,
0.229822,'185',,
0.230082,'155',,
0.230342,'232',,
0.230602,'31',,
0.230862,'248',,
0.231122,'0',,
0.231382,'0',,
0.231642,'0',,
0.231902,'0',,
0.232162,'169',,
0.232422,'154',,
0.232682,a,,
0.232942,'141',,
0.233202,'225',,
0.233462,'140',,
0.233723,'176',,
0.233983,'139',,
0.234243,'19',,
0.234503,'140',,
0.234763,'4',,
0.235023,'8',,
0.236443,L,,
0.236703,C,,
0.236963,S,,
0.237223,A,,
0.237483,'250',,
0.237743,Q,,
0.238003,'160',,
0.238263,'0',,
0.238523,\n,,
0.238783,h,,
0.239043,'29',,
0.239303,'232',,
0.239563,'30',,
0.239823,'185',,
0.240083,'155',,
0.240343,'232',,
0.240603,'31',,
0.240863,'248',,
0.241123,'0',,
0.241383,'0',,
0.241644,'0',,
0.241904,'0',,
0.242164,'225',,
0.242424,'140',,
0.242684,'224',,
0.242944,\r,,
0.243204,'225',,
0.243464,'140',,
0.243724,'176',,
0.243984,'139',,
0.244244,'19',,
0.244504,'140',,
0.244764,'4',,
0.245024,'8',,
0.2466,L,,
0.24686,C,,
0.24712,S,,
0.24738,A,,
0.24764,'250',,
0.2479,Q,,
0.24816,'160',,
0.24842,'0',,
0.24868,\n,,
0.24894,h,,
0.249201,'29',,
0.249461,'232',,
0.249721,'30',,
0.249981,'185',,
0.250241,'155',,
0.250501,'232',,
0.250761,'31',,
0.25102,'248',,
0.25128,'0',,
0.251541,'0',,
0.251801,'0',,
0.252061,'0',,
0.252321,'160',,
0.252581,'128',,
0.252841,'224',,
0.253101,\r,,
0.253361,'225',,
0.253621,'140',,
0.253881,'176',,
0.254141,'139',,
0.254401,'19',,
0.254661,'140',,
0.254921,'4',,
0.255181,'8',,
0.256623,L,,
0.256883,C,,
0.257143,S,,
0.257403,A,,
0.257663,'250',,
0.257923,Q,,
0.258183,'160',,
0.258443,'0',,
0.258703,\n,,
0.258963,h,,
0.259223,'29',,
0.259483,'232',,
0.259743,'30',,
0.260003,'185',,
0.260263,'155',,
0.260523,'232',,
0.260783,'31',,
0.261043,'248',,
0.261303,'0',,
0.261563,'0',,
0.261823,'0',,
0.262083,'0',,
0.262343,a,,
0.262603,'142',,
0.262863,'224',,
0.263123,\r,,
0.263383,'225',,
0.263643,'140',,
0.263903,'176',,
0.264163,'139',,
0.264423,'19',,
0.264683,'140',,
0.264943,'4',,
0.265203,'8',,
0.266616,L,,
0.266876,C,,
0.267136,S,,
0.267396,A,,
0.267656,'250',,
0.267916,Q,,
0.268176,'160',,
0.268436,'0',,
0.268696,\n,,
0.268956,h,,
0.269216,'29',,
0.269476,'232',,
0.269736,'30',,
0.269996,'185',,
0.270256,'155',,
0.270516,'232',,
0.270776,'31',,
0.271036,'248',,
0.271296,'0',,
0.271556,'0',,
0.271816,'0',,
0.272076,'0',,
0.272336,'224',,
0.272596,'12',,
0.272856,'224',,
0.273116,\r,,
0.273376,'225',,
0.273636,'140',,
0.273896,'176',,
0.274156,'139',,
0.274417,'19',,
0.274677,'140',,
0.274937,'4',,
0.275197,'8',,
0.276619,L,,
0.276879,C,,
0.277139,S,,
0.277399,A,,
0.277659,'250',,
0.277919,Q,,
0.278179,'160',,
0.278439,'0',,
0.278699,\n,,
0.278959,h,,
0.279219,'29',,
0.279479,'232',,
0.279739,'30',,
0.279999,'185',,
0.280259,'155',,
0.280519,'232',,
0.280779,'31',,
0.281039,'248',,
0.281299,'0',,
0.281559,'0',,
0.281819,'0',,
0.282079,'0',,
0.282339,'225',,
0.282599,'132',,
0.282859,'224',,
0.283119,\r,,
0.283379,'225',,
0.283639,'140',,
0.283899,'176',,
0.284159,'139',,
0.284419,'19',,
0.284679,'140',,
0.284939,'4',,
0.285199,'8',,
0.286618,L,,
0.286878,C,,
0.287138,S,,
0.287398,A,,
0.287658,'250',,
0.287918,Q,,
0.288178,'160',,
0.288438,'0',,
0.288698,\n,,
0.288958,h,,
0.289218,'29',,
0.289479,'232',,
0.289739,'30',,
0.289999,'185',,
0.290259,'155',,
0.290519,'232',,
0.290779,'31',,
0.291039,'248',,
0.291299,'0',,
0.291559,'0',,
0.291819,'0',,
0.292079,'0',,
0.292339,'160',,
0.292599,'0',,
0.292859,'224',,
0.293119,\r,,
0.293379,'225',,
0.293639,'140',,
0.293899,'176',,
0.294159,'139',,
0.294419,'19',,
0.294679,'140',,
0.294939,'4',,
0.295199,'8',,
0.296619,L,,
0.296879,C,,
0.297139,S,,
0.2974,A,,
0.29766,'250',,
0.29792,Q,,
0.29818,'160',,
0.29844,'0',,
0.2987,\n,,
0.29896,h,,
0.29922,'29',,
0.29948,'232',,
0.29974,'30',,
0.3,'185',,
0.30026,'155',,
0.30052,'232',,
0.30078,'31',,
0.30104,'248',,
0.3013,'0',,
0.30156,'0',,
0.30182,'0',,
0.30208,'0',,
0.30234,'169',,
0.3026,'154',,
0.30286,'224',,
0.30312,\r,,
0.30338,'225',,
0.30364,'140',,
0.3039,'176',,
0.30416,'139',,
0.30442,'19',,
0.30468,'140',,
0.30494,'4',,
0.3052,'8',,
0.306621,L,,
0.306881,C,,
0.307141,S,,
0.307401,A,,
0.307661,'250',,
0.307921,Q,,
0.308181,'160',,
0.308441,'0',,
0.308701,\n,,
0.308961,h,,
0.309221,'29',,
0.309481,'232',,
0.309741,'30',,
0.310001,'185',,
0.310261,'155',,
0.310521,'232',,
0.310781,'31',,
0.311041,'248',,
0.311301,'0',,
0.311561,'0',,
0.311821,'0',,
0.312081,'0',,
0.312341,'225',,
0.312601,'142',,
0.312861,'225',,
0.313121,'133',,
0.313381,'225',,
0.313641,'140',,
0.313901,'176',,
0.314161,'139',,
0.314421,'19',,
0.314681,'140',,
0.314941,'4',,
0.315202,'8',,
0.316466,L,,
0.316726,C,,
0.316986,S,,
0.317246,A,,
0.317506,'250',,
0.317766,Q,,
0.318026,'160',,
0.318286,'0',,
0.318546,\n,,
0.318806,h,,
0.319066,'29',,
0.319326,'232',,
0.319586,'30',,
0.319846,'185',,
0.320106,'155',,
0.320366,'232',,
0.320626,'31',,
0.320886,'248',,
0.321146,'0',,
0.321406,'0',,
0.321666,'0',,
0.321926,'0',,
0.322186,a,,
0.322446,'142',,
0.322707,'225',,
0.322967,'133',,
0.323227,'225',,
0.323487,'140',,
0.323747,'176',,
0.324007,'139',,
0.324267,'19',,
0.324527,'140',,
0.324787,'4',,
0.325047,'8',,
0.32661,L,,
0.32687,C,,
0.32713,S,,
0.32739,A,,
0.32765,'250',,
0.32791,Q,,
0.32817,'160',,
0.328431,'0',,
0.328691,\n,,
0.32895,h,,
0.32921,'29',,
0.329471,'232',,
0.329731,'30',,
0.32999,'185',,
0.330251,'155',,
0.330511,'232',,
0.330771,'31',,
0.331031,'248',,
0.331291,'0',,
0.331551,'0',,
0.331811,'0',,
0.332071,'0',,
0.332331,a,,
0.332591,'140',,
0.332851,'225',,
0.333111,'133',,
0.333371,'225',,
0.333631,'140',,
0.333891,'176',,
0.334151,'139',,
0.334411,'19',,
0.334671,'140',,
0.334931,'4',,
0.335191,'8',,
0.336772,L,,
0.337032,C,,
0.337292,S,,
0.337552,A,,
0.337812,'250',,
0.338072,Q,,
0.338332,'160',,
0.338592,'0',,
0.338852,\n,,
0.339112,h,,
0.339372,'29',,
0.339633,'232',,
0.339892,'30',,
0.340153,'185',,
0.340413,'155',,
0.340673,'232',,
0.340933,'31',,
0.341193,'248',,
0.341453,'0',,
0.341713,'0',,
0.341973,'0',,
0.342233,'0',,
0.342493,'225',,
0.342753,'132',,
0.343013,'225',,
0.343273,'133',,
0.343533,'225',,
0.343793,'140',,
0.344053,'176',,
0.344313,'139',,
0.344573,'19',,
0.344833,'140',,
0.345093,'4',,
0.345353,'8',,
0.346748,L,,
0.347008,C,,
0.347268,S,,
0.347528,A,,
0.347788,'250',,
0.348048,Q,,
0.348308,'160',,
0.348568,'0',,
0.348828,\n,,
0.349088,h,,
0.349348,'29',,
0.349608,'232',,
0.349868,'30',,
0.350128,'185',,
0.350388,'155',,
0.350648,'232',,
0.350908,'31',,
0.351168,'248',,
0.351428,'0',,
0.351688,'0',,
0.351948,'0',,
0.352208,'0',,
0.352468,'193',,
0.352728,'134',,
0.352988,'225',,
0.353248,'133',,
0.353508,'225',,
0.353768,'140',,
0.354028,'176',,
0.354288,'139',,
0.354548,'19',,
0.354808,'140',,
0.355068,'4',,
0.355328,'8',,
0.356757,L,,
0.357017,C,,
0.357277,S,,
0.357537,A,,
0.357797,'250',,
0.358057,Q,,
0.358317,'160',,
0.358577,'0',,
0.358837,\n,,
0.359097,h,,
0.359357,'29',,
0.359617,'232',,
0.359877,'30',,
0.360137,'185',,
0.360397,'155',,
0.360657,'232',,
0.360917,'31',,
0.361177,'248',,
0.361437,'0',,
0.361697,'0',,
0.361957,'0',,
0.362217,'0',,
0.362477,'169',,
0.362737,'154',,
0.362997,'225',,
0.363258,'133',,
0.363518,'225',,
0.363778,'140',,
0.364038,'176',,
0.364298,'139',,
0.364558,'19',,
0.364818,'140',,
0.365078,'4',,
0.365338,'8',,
0.36675,L,,
0.36701,C,,
0.36727,S,,
0.36753,A,,
0.36779,'250',,
0.36805,Q,,
0.36831,'160',,
0.36857,'0',,
0.36883,\n,,
0.36909,h,,
0.36935,'29',,
0.36961,'232',,
0.36987,'30',,
0.37013,'185',,
0.37039,'155',,
0.37065,'232',,
0.37091,'31',,
0.37117,'248',,
0.37143,'0',,
0.37169,'0',,
0.371951,'0',,
0.372211,'0',,
0.372471,'225',,
0.372731,'140',,
0.372991,'193',,
0.373251,'135',,
0.373511,'225',,
0.373771,'140',,
0.374031,'176',,
0.374291,'139',,
0.374551,'19',,
0.374811,'140',,
0.375071,'4',,
0.375331,'8',,
0.376595,L,,
0.376855,C,,
0.377115,S,,
0.377375,A,,
0.377635,'250',,
0.377895,Q,,
0.378155,'160',,
0.378415,'0',,
0.378675,\n,,
0.378935,h,,
0.379195,'29',,
0.379455,'232',,
0.379716,'30',,
0.379975,'185',,
0.380236,'155',,
0.380496,'232',,
0.380756,'31',,
0.381016,'248',,
0.381276,'0',,
0.381536,'0',,
0.381796,'0',,
0.382056,'0',,
0.382316,'225',,
0.382576,'142',,
0.382836,'193',,
0.383096,'135',,
0.383356,'225',,
0.383616,'140',,
0.383876,'176',,
0.384136,'139',,
0.384396,'19',,
0.384656,'140',,
0.384916,'4',,
0.385176,'8',,
0.386582,L,,
0.386842,C,,
0.387102,S,,
0.387362,A,,
0.387622,'250',,
0.387882,Q,,
0.388142,'160',,
0.388402,'0',,
0.388662,\n,,
0.388922,h,,
0.389182,'29',,
0.389442,'232',,
0.389702,'30',,
0.389962,'185',,
0.390222,'155',,
0.390482,'232',,
0.390742,'31',,
0.391002,'248',,
0.391262,'0',,
0.391522,'0',,
0.391782,'0',,
0.392042,'0',,
0.392302,'160',,
0.392562,'128',,
0.392822,'193',,
0.393082,'135',,
0.393342,'225',,
0.393603,'140',,
0.393862,'176',,
0.394123,'139',,
0.394383,'19',,
0.394643,'140',,
0.394903,'4',,
0.395163,'8',,
0.396581,L,,
0.396841,C,,
0.397101,S,,
0.397362,A,,
0.397622,'250',,
0.397882,Q,,
0.398142,'160',,
0.398402,'0',,
0.398662,\n,,
0.398922,h,,
0.399182,'29',,
0.399442,'232',,
0.399702,'30',,
0.399962,'185',,
0.400222,'155',,
0.400482,'232',,
0.400742,'31',,
0.401002,'248',,
0.401262,'0',,
0.401522,'0',,
0.401782,'0',,
0.402042,'0',,
0.402302,a,,
0.402562,'142',,
0.402822,'193',,
0.403082,'135',,
0.403342,'225',,
0.403602,'140',,
0.403862,'176',,
0.404122,'139',,
0.404382,'19',,
0.404642,'140',,
0.404902,'4',,
0.405162,'8',,
0.406586,L,,
0.406846,C,,
0.407106,S,,
0.407366,A,,
0.407626,'250',,
0.407886,Q,,
0.408146,'160',,
0.408406,'0',,
0.408666,\n,,
0.408926,h,,
0.409186,'29',,
0.409446,'232',,
0.409706,'30',,
0.409966,'185',,
0.410226,'155',,
0.410486,'232',,
0.410746,'31',,
0.411006,'248',,
0.411266,'0',,
0.411526,'0',,
0.411786,'0',,
0.412046,'0',,
0.412306,a,,
0.412566,'140',,
0.412827,'193',,
0.413087,'135',,
0.413347,'225',,
0.413607,'140',,
0.413867,'176',,
0.414127,'139',,
0.414387,'19',,
0.414647,'140',,
0.414907,'4',,
0.415167,'8',,
0.416586,L,,
0.416846,C,,
0.417106,S,,
0.417366,A,,
0.417626,'250',,
0.417886,Q,,
0.418146,'160',,
0.418406,'0',,
0.418666,\n,,
0.418926,h,,
0.419186,'29',,
0.419446,'232',,
0.419706,'30',,
0.419966,'185',,
0.420226,'155',,
0.420486,'232',,
0.420746,'31',,
0.421006,'248',,
0.421266,'0',,
0.421526,'0',,
0.421786,'0',,
0.422046,'0',,
0.422306,'224',,
0.422566,'12',,
0.422826,'193',,
0.423086,'135',,
0.423346,'225',,
0.423606,'140',,
0.423866,'176',,
0.424126,'139',,
0.424386,'19',,
0.424646,'140',,
0.424906,'4',,
0.425166,'8',,
0.426585,L,,
0.426845,C,,
0.427105,S,,
0.427365,A,,
0.427625,'250',,
0.427885,Q,,
0.428145,'160',,
0.428405,'0',,
0.428665,\n,,
0.428925,h,,
0.429185,'29',,
0.429445,'232',,
0.429705,'30',,
0.429965,'185',,
0.430225,'155',,
0.430485,'232',,
0.430746,'31',,
0.431006,'248',,
0.431266,'0',,
0.431526,'0',,
0.431786,'0',,
0.432046,'0',,
0.432306,'225',,
0.432566,'132',,
0.432826,'193',,
0.433086,'135',,
0.433346,'225',,
0.433606,'140',,
0.433866,'176',,
0.434126,'139',,
0.434386,'19',,
0.434646,'140',,
0.434906,'4',,
0.435166,'8',,
0.436588,L,,
0.436848,C,,
0.437108,S,,
0.437368,A,,
0.437628,'250',,
0.437888,Q,,
0.438148,'160',,
0.438408,'0',,
0.438668,\n,,
0.438928,h,,
0.439188,'29',,
0.439448,'232',,
0.439708,'30',,
0.439968,'185',,
0.440228,'155',,
0.440488,'232',,
0.440748,'31',,
0.441008,'248',,
0.441268,'0',,
0.441528,'0',,
0.441789,'0',,
0.442049,'0',,
0.442308,'193',,
0.442569,'134',,
0.442829,'193',,
0.443089,'135',,
0.443349,'225',,
0.443609,'140',,
0.443869,'176',,
0.444129,'139',,
0.444389,'19',,
0.444649,'140',,
0.444909,'4',,
0.445169,'8',,
0.446588,L,,
0.446848,C,,
0.447108,S,,
0.447368,A,,
0.447628,'250',,
0.447888,Q,,
0.448148,'160',,
0.448408,'0',,
0.448668,\n,,
0.448928,h,,
0.449188,'29',,
0.449448,'232',,
0.449708,'30',,
0.449968,'185',,
0.450228,'155',,
0.450488,'232',,
0.450748,'31',,
0.451008,'248',,
0.451268,'0',,
0.451528,'0',,
0.451788,'0',,
0.452048,'0',,
0.452308,'160',,
0.452568,'0',,
0.452828,'193',,
0.453088,'135',,
0.453348,'225',,
0.453608,'140',,
0.453868,'176',,
0.454128,'139',,
0.454388,'19',,
0.454648,'140',,
0.454908,'4',,
0.455168,'8',,
0.456755,L,,
0.457015,C,,
0.457275,S,,
0.457535,A,,
0.457795,'250',,
0.458055,Q,,
0.458315,'160',,
0.458575,'0',,
0.458835,\n,,
0.459095,h,,
0.459355,'29',,
0.459615,'232',,
0.459875,'30',,
0.460134,'185',,
0.460395,'155',,
0.460655,'232',,
0.460915,'31',,
0.461175,'248',,
0.461435,'0',,
0.461695,'0',,
0.461955,'0',,
0.462215,'0',,
0.462475,'225',,
0.462735,'140',,
0.462995,'160',,
0.463255,'1',,
0.463515,'225',,
0.463775,'140',,
0.464035,'176',,
0.464295,'139',,
0.464555,'19',,
0.464815,'140',,
0.465075,'4',,
0.465335,'8',,
0.466759,L,,
0.467019,C,,
0.467279,S,,
0.467539,A,,
0.467799,'250',,
0.468059,Q,,
0.468319,'160',,
0.468579,'0',,
0.468839,\n,,
0.469099,h,,
0.469359,'29',,
0.469619,'232',,
0.469879,'30',,
0.470139,'185',,
0.470399,'155',,
0.470659,'232',,
0.47092,'31',,
0.47118,'248',,
0.47144,'0',,
0.4717,'0',,
0.47196,'0',,
0.47222,'0',,
0.47248,'225',,
0.47274,'142',,
0.473,'160',,
0.47326,'1',,
0.47352,'225',,
0.47378,'140',,
0.47404,'176',,
0.4743,'139',,
0.47456,'19',,
0.47482,'140',,
0.47508,'4',,
0.47534,'8',,
0.476759,L,,
0.477019,C,,
0.477279,S,,
0.477539,A,,
0.477799,'250',,
0.478059,Q,,
0.478319,'160',,
0.478579,'0',,
0.478839,\n,,
0.479099,h,,
0.479359,'29',,
0.479619,'232',,
0.479879,'30',,
0.480139,'185',,
0.480399,'155',,
0.480659,'232',,
0.480919,'31',,
0.481179,'248',,
0.481439,'0',,
0.481699,'0',,
0.481959,'0',,
0.482219,'0',,
0.482479,a,,
0.482739,'142',,
0.482999,'160',,
0.483259,'1',,
0.483519,'225',,
0.483779,'140',,
0.484039,'176',,
0.484299,'139',,
0.484559,'19',,
0.484819,'140',,
0.48508,'4',,
0.48534,'8',,
0.486607,L,,
0.486867,C,,
0.487127,S,,
0.487387,A,,
0.487647,'250',,
0.487907,Q,,
0.488167,'160',,
0.488427,'0',,
0.488687,\n,,
0.488947,h,,
0.489207,'29',,
0.489467,'232',,
0.489727,'30',,
0.489987,'185',,
0.490248,'155',,
0.490508,'232',,
0.490768,'31',,
0.491028,'248',,
0.491288,'0',,
0.491548,'0',,
0.491808,'0',,
0.492068,'0',,
0.492328,'224',,
0.492588,'12',,
0.492848,'160',,
0.493108,'1',,
0.493368,'225',,
0.493628,'140',,
0.493888,'176',,
0.494148,'139',,
0.494408,'19',,
0.494668,'140',,
0.494928,'4',,
0.495188,'8',,
0.496592,L,,
0.496852,C,,
0.497112,S,,
0.497372,A,,
0.497632,'250',,
0.497892,Q,,
0.498152,'160',,
0.498412,'0',,
0.498672,\n,,
0.498932,h,,
0.499192,'29',,
0.499452,'232',,
0.499712,'30',,
0.499972,'185',,
0.500233,'155',,
0.500493,'232',,
0.500753,'31',,
0.501013,'248',,
0.501273,'0',,
0.501533,'0',,
0.501793,'0',,
0.502053,'0',,
0.502313,'193',,
0.502573,'134',,
0.502833,'160',,
0.503093,'1',,
0.503353,'225',,
0.503613,'140',,
0.503873,'176',,
0.504133,'139',,
0.504393,'19',,
0.504653,'140',,
0.504913,'4',,
0.505173,'8',,
0.506593,L,,
0.506853,C,,
0.507113,S,,
0.507373,A,,
0.507634,'250',,
0.507894,Q,,
0.508154,'160',,
0.508414,'0',,
0.508674,\n,,
0.508934,h,,
0.509194,'29',,
0.509454,'232',,
0.509714,'30',,
0.509974,'185',,
0.510234,'155',,
0.510494,'232',,
0.510754,'31',,
0.511014,'248',,
0.511274,'0',,
0.511534,'0',,
0.511794,'0',,
0.512054,'0',,
0.512314,'169',,
0.512574,'154',,
0.512834,'160',,
0.513094,'1',,
0.513354,'225',,
0.513614,'140',,
0.513874,'176',,
0.514134,'139',,
0.514394,'19',,
0.514654,'140',,
0.514914,'4',,
0.515174,'8',,
0.516595,L,,
0.516855,C,,
0.517115,S,,
0.517375,A,,
0.517635,'250',,
0.517895,Q,,
0.518155,'160',,
0.518415,'0',,
0.518675,\n,,
0.518935,h,,
0.519195,'29',,
0.519455,'232',,
0.519715,'30',,
0.519975,'185',,
0.520235,'155',,
0.520495,'232',,
0.520755,'31',,
0.521015,'248',,
0.521275,'0',,
0.521535,'0',,
0.521795,'0',,
0.522055,'0',,
0.522315,'225',,
0.522575,'142',,
0.522835,'169',,
0.523095,'155',,
0.523355,'225',,
0.523615,'140',,
0.523875,'176',,
