Time [s],Value,Parity Error,Framing Error
0.214642,L,,
0.214902,C,,
0.215162,S,,
0.215422,A,,
0.215682,'250',,
0.215942,Q,,
0.216202,'160',,
0.216462,'0',,
0.216722,\n,,
0.216982,h,,
0.217242,'29',,
0.217502,'232',,
0.217762,'30',,
0.218022,'185',,
0.218282,'155',,
0.218542,'192',,
0.218802,'15',,
0.219062,'240',,
0.219322,'0',,
0.219582,'0',,
0.219842,'0',,
0.220102,'0',,
0.220362,'169',,
0.220622,'154',,
0.220882,'193',,
0.221142,'135',,
0.221402,a,,
0.221662,'142',,
0.221922,'176',,
0.222182,'139',,
0.222442,'19',,
0.222702,'140',,
0.222962,'4',,
0.223222,'8',,
0.514501,L,,
0.514762,C,,
0.515021,S,,
0.515282,A,,
0.515542,'250',,
0.515802,Q,,
0.516062,'160',,
0.516322,'0',,
0.516582,\n,,
0.516842,h,,
0.517102,'29',,
0.517362,'232',,
0.517622,'30',,
0.517882,'185',,
0.518142,'155',,
0.518402,'192',,
0.518662,'15',,
0.518922,'240',,
0.519182,'0',,
0.519442,'0',,
0.519702,'0',,
0.519962,'0',,
0.520222,'169',,
0.520482,'154',,
0.520742,'193',,
0.521002,'135',,
0.521262,a,,
0.521522,'142',,
0.521782,'176',,
0.522042,'139',,
0.522302,'19',,
0.522562,'140',,
0.522822,'4',,
0.523082,'8',,
0.814703,L,,
0.814963,C,,
0.815223,S,,
0.815483,A,,
0.815743,'250',,
0.816003,Q,,
0.816263,'160',,
0.816523,'0',,
0.816783,\n,,
0.817043,h,,
0.817303,'29',,
0.817563,'232',,
0.817823,'30',,
0.818083,'185',,
0.818343,'155',,
0.818603,'192',,
0.818863,'15',,
0.819123,'240',,
0.819383,'0',,
0.819643,'0',,
0.819903,'0',,
0.820163,'0',,
0.820423,'169',,
0.820683,'154',,
0.820943,'193',,
0.821203,'135',,
0.821463,a,,
0.821723,'142',,
0.821983,'176',,
0.822243,'139',,
0.822503,'19',,
0.822763,'140',,
0.823024,'4',,
0.823284,'8',,
0.986905,L,,
0.987165,C,,
0.987425,S,,
0.987685,A,,
0.987945,'250',,
0.988205,Q,,
0.988465,'160',,
0.988725,'0',,
0.988985,\n,,
0.989245,h,,
0.989505,'29',,
0.989765,'232',,
0.990025,'30',,
0.990285,'185',,
0.990545,'155',,
0.990805,'192',,
0.991065,'15',,
0.991325,'240',,
0.991585,'0',,
0.991845,'0',,
0.992105,'0',,
0.992365,'0',,
0.992625,'169',,
0.992885,'154',,
0.993145,'160',,
0.993405,'1',,
0.993665,a,,
0.993925,'142',,
0.994185,'176',,
0.994445,'139',,
0.994705,'19',,
0.994965,'140',,
0.995225,'4',,
0.995486,'8',,
1.114561,L,,
1.114821,C,,
1.115081,S,,
1.115341,A,,
1.115601,'250',,
1.115861,Q,,
1.116121,'160',,
1.116381,'0',,
1.116641,\n,,
1.116901,h,,
1.117161,'29',,
1.117421,'232',,
1.117681,'30',,
1.117941,'185',,
1.118201,'155',,
1.118461,'192',,
1.118721,'15',,
1.118981,'240',,
1.119241,'0',,
1.119501,'0',,
1.119762,'0',,
1.120022,'0',,
1.120282,'169',,
1.120542,'154',,
1.120802,'160',,
1.121062,'1',,
1.121322,a,,
1.121582,'142',,
1.121842,'176',,
1.122102,'139',,
1.122362,'19',,
1.122622,'140',,
1.122882,'4',,
1.123142,'8',,
1.146798,L,,
1.147058,C,,
1.147318,S,,
1.147578,A,,
1.147838,'250',,
1.148098,Q,,
1.148358,'160',,
1.148618,'0',,
1.148878,\n,,
1.149138,h,,
1.149398,'29',,
1.149658,'232',,
1.149918,'30',,
1.150178,'185',,
1.150438,'155',,
1.150698,'192',,
1.150958,'15',,
1.151218,'240',,
1.151478,'0',,
1.151738,'0',,
1.151998,'0',,
1.152258,'0',,
1.152518,'169',,
1.152778,'154',,
1.153038,'169',,
1.153298,'155',,
1.153558,a,,
1.153818,'142',,
1.154078,'176',,
1.154338,'139',,
1.154598,'19',,
1.154858,'140',,
1.155118,'4',,
1.155379,'8',,
1.306814,L,,
1.307074,C,,
1.307334,S,,
1.307594,A,,
1.307854,'250',,
1.308114,Q,,
1.308374,'160',,
1.308634,'0',,
1.308894,\n,,
1.309154,h,,
1.309414,'29',,
1.309674,'232',,
1.309934,'30',,
1.310195,'185',,
1.310455,'155',,
1.310715,'192',,
1.310975,'15',,
1.311235,'240',,
1.311495,'0',,
1.311755,'0',,
1.312015,'0',,
1.312275,'0',,
1.312535,'169',,
1.312795,'154',,
1.313055,'225',,
1.313315,'141',,
1.313575,a,,
1.313835,'140',,
1.314095,'176',,
1.314355,'139',,
1.314615,'19',,
1.314875,'140',,
1.315135,'4',,
1.315395,'8',,
1.414762,L,,
1.415022,C,,
1.415282,S,,
1.415542,A,,
1.415802,'250',,
1.416062,Q,,
1.416322,'160',,
1.416582,'0',,
1.416842,\n,,
1.417102,h,,
1.417362,'29',,
1.417622,'232',,
1.417883,'30',,
1.418143,'185',,
1.418403,'155',,
1.418663,'192',,
1.418923,'15',,
1.419183,'240',,
1.419443,'0',,
1.419703,'0',,
1.419963,'0',,
1.420223,'0',,
1.420483,'169',,
1.420743,'154',,
1.421003,'225',,
1.421263,'141',,
1.421523,a,,
1.421783,'140',,
1.422043,'176',,
1.422303,'139',,
1.422563,'19',,
1.422823,'140',,
1.423083,'4',,
1.423343,'8',,
1.466953,L,,
1.467213,C,,
1.467473,S,,
1.467733,A,,
1.467993,'250',,
1.468253,Q,,
1.468513,'160',,
1.468773,'0',,
1.469033,\n,,
1.469293,h,,
1.469553,'29',,
1.469813,'232',,
1.470073,'30',,
1.470333,'185',,
1.470593,'155',,
1.470853,'192',,
1.471113,'15',,
1.471373,'240',,
1.471633,'0',,
1.471893,'0',,
1.472153,'0',,
1.472413,'0',,
1.472673,'169',,
1.472933,'154',,
1.473193,'225',,
1.473453,'143',,
1.473713,a,,
1.473973,'140',,
1.474233,'176',,
1.474493,'139',,
1.474753,'19',,
1.475013,'140',,
1.475273,'4',,
1.475533,'8',,
1.626967,L,,
1.627228,C,,
1.627488,S,,
1.627748,A,,
1.628008,'250',,
1.628268,Q,,
1.628528,'160',,
1.628788,'0',,
1.629048,\n,,
1.629308,h,,
1.629568,'29',,
1.629828,'232',,
1.630088,'30',,
1.630348,'185',,
1.630608,'155',,
1.630868,'192',,
1.631128,'15',,
1.631388,'240',,
1.631648,'0',,
1.631908,'0',,
1.632168,'0',,
1.632428,'0',,
1.632688,'169',,
1.632948,'154',,
1.633208,'160',,
1.633468,'129',,
1.633728,a,,
1.633988,'140',,
1.634248,'176',,
1.634508,'139',,
1.634768,'19',,
1.635028,'140',,
1.635288,'4',,
1.635548,'8',,
1.714621,L,,
1.714881,C,,
1.715141,S,,
1.715401,A,,
1.715661,'250',,
1.715921,Q,,
1.716181,'160',,
1.716441,'0',,
1.716701,\n,,
1.716961,h,,
1.717221,'29',,
1.717481,'232',,
1.717741,'30',,
1.718001,'185',,
1.718261,'155',,
1.718521,'192',,
1.718781,'15',,
1.719041,'240',,
1.719301,'0',,
1.719561,'0',,
1.719821,'0',,
1.720081,'0',,
1.720341,'169',,
1.720601,'154',,
1.720861,'160',,
1.721121,'129',,
1.721381,a,,
1.721641,'140',,
1.721901,'176',,
1.722161,'139',,
1.722421,'19',,
1.722681,'140',,
1.722941,'4',,
1.723201,'8',,
1.776859,L,,
1.777119,C,,
1.777379,S,,
1.777639,A,,
1.777899,'250',,
1.778159,Q,,
1.778419,'160',,
1.778679,'0',,
1.778939,\n,,
1.779199,h,,
1.77946,'29',,
1.77972,'232',,
1.77998,'30',,
1.78024,'185',,
1.7805,'155',,
1.78076,'192',,
1.78102,'15',,
1.78128,'240',,
1.78154,'0',,
1.7818,'0',,
1.78206,'0',,
1.78232,'0',,
1.78258,'169',,
1.78284,'154',,
1.7831,a,,
1.78336,'143',,
1.78362,a,,
1.78388,'140',,
1.78414,'176',,
1.7844,'139',,
1.78466,'19',,
1.78492,'140',,
1.78518,'4',,
1.78544,'8',,
1.906872,L,,
1.907132,C,,
1.907392,S,,
1.907652,A,,
1.907912,'250',,
1.908172,Q,,
1.908432,'160',,
1.908692,'0',,
1.908952,\n,,
1.909212,h,,
1.909472,'29',,
1.909732,'232',,
1.909992,'30',,
1.910252,'185',,
1.910512,'155',,
1.910772,'192',,
1.911033,'15',,
1.911293,'240',,
1.911553,'0',,
1.911813,'0',,
1.912073,'0',,
1.912333,'0',,
1.912593,'169',,
1.912853,'154',,
1.913113,a,,
1.913373,'141',,
1.913633,a,,
1.913893,'140',,
1.914153,'176',,
1.914413,'139',,
1.914673,'19',,
1.914933,'140',,
1.915193,'4',,
1.915453,'8',,
2.01482,L,,
2.01508,C,,
2.01534,S,,
2.0156,A,,
2.01586,'250',,
2.01612,Q,,
2.01638,'160',,
2.01664,'0',,
2.0169,\n,,
2.01716,h,,
2.01742,'29',,
2.01768,'232',,
2.01794,'30',,
2.0182,'185',,
2.01846,'155',,
2.01872,'192',,
2.01898,'15',,
2.019241,'240',,
2.019501,'0',,
2.019761,'0',,
2.020021,'0',,
2.020281,'0',,
2.020541,'169',,
2.020801,'154',,
2.021061,a,,
2.021321,'141',,
2.021581,a,,
2.021841,'140',,
2.022101,'176',,
2.022361,'139',,
2.022621,'19',,
2.022881,'140',,
2.023141,'4',,
2.023401,'8',,
2.047011,L,,
2.047271,C,,
2.047531,S,,
2.047791,A,,
2.048051,'250',,
2.048311,Q,,
2.048571,'160',,
2.048831,'0',,
2.049091,\n,,
2.049351,h,,
2.049612,'29',,
2.049872,'232',,
2.050132,'30',,
2.050392,'185',,
2.050652,'155',,
2.050912,'192',,
2.051172,'15',,
2.051432,'240',,
2.051692,'0',,
2.051952,'0',,
2.052212,'0',,
2.052472,'0',,
2.052732,'169',,
2.052992,'154',,
2.053252,'224',,
2.053512,\r,,
2.053772,a,,
2.054032,'140',,
2.054292,'176',,
2.054552,'139',,
2.054812,'19',,
2.055072,'140',,
2.055332,'4',,
2.055592,'8',,
2.187024,L,,
2.187284,C,,
2.187544,S,,
2.187804,A,,
2.188064,'250',,
2.188324,Q,,
2.188584,'160',,
2.188844,'0',,
2.189104,\n,,
2.189364,h,,
2.189624,'29',,
2.189884,'232',,
2.190144,'30',,
2.190404,'185',,
2.190664,'155',,
2.190924,'192',,
2.191184,'15',,
2.191444,'240',,
2.191704,'0',,
2.191964,'0',,
2.192224,'0',,
2.192484,'0',,
2.192744,'169',,
2.193004,'154',,
2.193264,'225',,
2.193524,'133',,
2.193784,a,,
2.194044,'140',,
2.194304,'176',,
2.194564,'139',,
2.194824,'19',,
2.195084,'140',,
2.195345,'4',,
2.195605,'8',,
2.31689,L,,
2.31715,C,,
2.31741,S,,
2.31767,A,,
2.31793,'250',,
2.31819,Q,,
2.31845,'160',,
2.31871,'0',,
2.31897,\n,,
2.31923,h,,
2.31949,'29',,
2.319751,'232',,
2.320011,'30',,
2.320271,'185',,
2.320531,'155',,
2.320791,'192',,
2.321051,'15',,
2.321311,'240',,
2.321571,'0',,
2.321831,'0',,
2.322091,'0',,
2.322351,'0',,
2.322611,'169',,
2.322871,'154',,
2.323131,'193',,
2.323391,'135',,
2.323651,a,,
2.323911,'140',,
2.324171,'176',,
2.324431,'139',,
2.324691,'19',,
2.324951,'140',,
2.325211,'4',,
2.325471,'8',,
2.506932,L,,
2.507192,C,,
2.507452,S,,
2.507712,A,,
2.507972,'250',,
2.508232,Q,,
2.508492,'160',,
2.508752,'0',,
2.509012,\n,,
2.509272,h,,
2.509532,'29',,
2.509792,'232',,
2.510052,'30',,
2.510312,'185',,
2.510572,'155',,
2.510832,'192',,
2.511092,'15',,
2.511352,'240',,
2.511612,'0',,
2.511872,'0',,
2.512132,'0',,
2.512392,'0',,
2.512652,'169',,
2.512912,'154',,
2.513172,'160',,
2.513432,'1',,
2.513692,a,,
2.513952,'140',,
2.514212,'176',,
2.514472,'139',,
2.514732,'19',,
2.514992,'140',,
2.515252,'4',,
2.515512,'8',,
2.615057,L,,
2.615317,C,,
2.615577,S,,
2.615837,A,,
2.616097,'250',,
2.616357,Q,,
2.616617,'160',,
2.616877,'0',,
2.617137,\n,,
2.617397,h,,
2.617657,'29',,
2.617917,'232',,
2.618177,'30',,
2.618437,'185',,
2.618697,'155',,
2.618957,'192',,
2.619217,'15',,
2.619477,'240',,
2.619737,'0',,
2.619997,'0',,
2.620257,'0',,
2.620517,'0',,
2.620777,'169',,
2.621037,'154',,
2.621297,'160',,
2.621557,'1',,
2.621817,a,,
2.622077,'140',,
2.622337,'176',,
2.622597,'139',,
2.622857,'19',,
2.623118,'140',,
2.623378,'4',,
2.623638,'8',,
2.677071,L,,
2.677331,C,,
2.677591,S,,
2.677851,A,,
2.678111,'250',,
2.678371,Q,,
2.678631,'160',,
2.678891,'0',,
2.679151,\n,,
2.679411,h,,
2.679672,'29',,
2.679931,'232',,
2.680192,'30',,
2.680452,'185',,
2.680712,'155',,
2.680972,'192',,
2.681232,'15',,
2.681492,'240',,
2.681752,'0',,
2.682012,'0',,
2.682272,'0',,
2.682532,'0',,
2.682792,'169',,
2.683052,'154',,
2.683312,'169',,
2.683572,'155',,
2.683832,a,,
2.684092,'140',,
2.684352,'176',,
2.684612,'139',,
2.684872,'19',,
2.685132,'140',,
2.685392,'4',,
2.685652,'8',,
2.916946,L,,
2.917207,C,,
2.917467,S,,
2.917727,A,,
2.917987,'250',,
2.918247,Q,,
2.918507,'160',,
2.918767,'0',,
2.919027,\n,,
2.919287,h,,
2.919547,'29',,
2.919807,'232',,
2.920067,'30',,
2.920327,'185',,
2.920587,'155',,
2.920847,'192',,
2.921107,'15',,
2.921367,'240',,
2.921627,'0',,
2.921887,'0',,
2.922147,'0',,
2.922407,'0',,
2.922667,'169',,
2.922927,'154',,
2.923187,'225',,
2.923447,'141',,
2.923707,'224',,
2.923967,'12',,
2.924227,'176',,
2.924487,'139',,
2.924747,'19',,
2.925007,'140',,
2.925267,'4',,
2.925527,'8',,
3.097248,L,,
3.097508,C,,
3.097768,S,,
3.098028,A,,
3.098288,'250',,
3.098548,Q,,
3.098808,'160',,
3.099068,'0',,
3.099328,\n,,
3.099588,h,,
3.099849,'29',,
3.100109,'232',,
3.100369,'30',,
3.100629,'185',,
3.100889,'155',,
3.101149,'192',,
3.101409,'15',,
3.101669,'240',,
3.101929,'0',,
3.102189,'0',,
3.102449,'0',,
3.102709,'0',,
3.102969,'169',,
3.103229,'154',,
3.103489,'225',,
3.103749,'143',,
3.104009,'224',,
3.104269,'12',,
3.104529,'176',,
3.104789,'139',,
3.105049,'19',,
3.105309,'140',,
3.105569,'4',,
3.105829,'8',,
3.214939,L,,
3.215199,C,,
3.215459,S,,
3.215719,A,,
3.215979,'250',,
3.216239,Q,,
3.216499,'160',,
3.216759,'0',,
3.217019,\n,,
3.217279,h,,
3.217539,'29',,
3.217799,'232',,
3.218059,'30',,
3.218319,'185',,
3.218579,'155',,
3.21884,'192',,
3.2191,'15',,
3.21936,'240',,
3.21962,'0',,
3.21988,'0',,
3.22014,'0',,
3.2204,'0',,
3.22066,'169',,
3.22092,'154',,
3.22118,'225',,
3.22144,'143',,
3.2217,'224',,
3.22196,'12',,
3.22222,'176',,
3.22248,'139',,
3.22274,'19',,
3.223,'140',,
3.22326,'4',,
3.22352,'8',,
3.257128,L,,
3.257388,C,,
3.257648,S,,
3.257908,A,,
3.258168,'250',,
3.258428,Q,,
3.258688,'160',,
3.258948,'0',,
3.259208,\n,,
3.259468,h,,
3.259729,'29',,
3.259989,'232',,
3.260249,'30',,
3.260509,'185',,
3.260769,'155',,
3.261029,'192',,
3.261289,'15',,
3.261549,'240',,
3.261809,'0',,
3.262069,'0',,
3.262329,'0',,
3.262589,'0',,
3.262849,'169',,
3.263109,'154',,
3.263369,'160',,
3.263629,'129',,
3.263889,'224',,
3.264149,'12',,
3.264409,'176',,
3.264669,'139',,
3.264929,'19',,
3.265189,'140',,
3.265449,'4',,
3.265709,'8',,
3.407144,L,,
3.407404,C,,
3.407664,S,,
3.407924,A,,
3.408184,'250',,
3.408444,Q,,
3.408704,'160',,
3.408964,'0',,
3.409224,\n,,
3.409484,h,,
3.409744,'29',,
3.410004,'232',,
3.410264,'30',,
3.410524,'185',,
3.410784,'155',,
3.411044,'192',,
3.411304,'15',,
3.411564,'240',,
3.411824,'0',,
3.412084,'0',,
3.412344,'0',,
3.412604,'0',,
3.412864,'169',,
3.413124,'154',,
3.413384,a,,
3.413644,'143',,
3.413904,'224',,
3.414164,'12',,
3.414424,'176',,
3.414684,'139',,
3.414944,'19',,
3.415204,'140',,
3.415464,'4',,
3.415724,'8',,
3.514797,L,,
3.515057,C,,
3.515317,S,,
3.515577,A,,
3.515838,'250',,
3.516098,Q,,
3.516358,'160',,
3.516618,'0',,
3.516878,\n,,
3.517138,h,,
3.517398,'29',,
3.517658,'232',,
3.517918,'30',,
3.518178,'185',,
3.518438,'155',,
3.518698,'192',,
3.518958,'15',,
3.519218,'240',,
3.519478,'0',,
3.519738,'0',,
3.519998,'0',,
3.520258,'0',,
3.520518,'169',,
3.520778,'154',,
3.521038,a,,
3.521298,'143',,
3.521558,'224',,
3.521818,'12',,
3.522078,'176',,
3.522338,'139',,
3.522598,'19',,
3.522858,'140',,
3.523118,'4',,
3.523378,'8',,
3.547032,L,,
3.547292,C,,
3.547553,S,,
3.547813,A,,
3.548073,'250',,
3.548333,Q,,
3.548593,'160',,
3.548853,'0',,
3.549113,\n,,
3.549373,h,,
3.549633,'29',,
3.549893,'232',,
3.550153,'30',,
3.550413,'185',,
3.550673,'155',,
3.550933,'192',,
3.551193,'15',,
3.551453,'240',,
3.551713,'0',,
3.551973,'0',,
3.552233,'0',,
3.552493,'0',,
3.552753,'169',,
3.553013,'154',,
3.553273,a,,
3.553533,'141',,
3.553793,'224',,
3.554053,'12',,
3.554313,'176',,
3.554573,'139',,
3.554833,'19',,
3.555093,'140',,
3.555353,'4',,
3.555613,'8',,
3.677047,L,,
3.677307,C,,
3.677567,S,,
3.677827,A,,
3.678087,'250',,
3.678347,Q,,
3.678607,'160',,
3.678867,'0',,
3.679127,\n,,
3.679387,h,,
3.679647,'29',,
3.679907,'232',,
3.680167,'30',,
3.680427,'185',,
3.680687,'155',,
3.680947,'192',,
3.681207,'15',,
3.681467,'240',,
3.681727,'0',,
3.681987,'0',,
3.682247,'0',,
3.682507,'0',,
3.682767,'169',,
3.683027,'154',,
3.683288,'224',,
3.683548,\r,,
3.683808,'224',,
3.684068,'12',,
3.684328,'176',,
3.684588,'139',,
3.684848,'19',,
3.685108,'140',,
3.685368,'4',,
3.685628,'8',,
3.807061,L,,
3.807321,C,,
3.807581,S,,
3.807841,A,,
3.808101,'250',,
3.808361,Q,,
3.808621,'160',,
3.808882,'0',,
3.809142,\n,,
3.809402,h,,
3.809662,'29',,
3.809922,'232',,
3.810182,'30',,
3.810442,'185',,
3.810702,'155',,
3.810962,'192',,
3.811222,'15',,
3.811482,'240',,
3.811742,'0',,
3.812002,'0',,
3.812262,'0',,
3.812522,'0',,
3.812782,'169',,
3.813042,'154',,
3.813302,'225',,
3.813562,'133',,
3.813822,'224',,
3.814082,'12',,
3.814342,'176',,
3.814602,'139',,
3.814862,'19',,
3.815122,'140',,
3.815382,'4',,
3.815642,'8',,
3.825,L,,
3.82526,C,,
3.82552,S,,
3.82578,A,,
3.82604,'250',,
3.8263,Q,,
3.82656,'160',,
3.82682,'0',,
3.82708,\n,,
3.82734,h,,
3.8276,'29',,
3.82786,'232',,
3.82812,'30',,
3.82838,'185',,
3.82864,'155',,
3.8289,'192',,
3.82916,'15',,
3.82942,'240',,
3.82968,'0',,
3.82994,'0',,
3.8302,'0',,
3.83046,'0',,
3.83072,'169',,
3.83098,'154',,
3.83124,'225',,
3.8315,'133',,
3.831761,'224',,
3.832021,'12',,
3.832281,'176',,
3.832541,'139',,
3.832801,'19',,
3.833061,'140',,
3.833321,'4',,
3.833581,'8',,
3.947196,L,,
3.947456,C,,
3.947716,S,,
3.947976,A,,
3.948236,'250',,
3.948496,Q,,
3.948756,'160',,
3.949016,'0',,
3.949276,\n,,
3.949536,h,,
3.949796,'29',,
3.950056,'232',,
3.950316,'30',,
3.950576,'185',,
3.950836,'155',,
3.951096,'192',,
3.951356,'15',,
3.951616,'240',,
3.951876,'0',,
3.952136,'0',,
3.952396,'0',,
3.952656,'0',,
3.952916,'169',,
3.953176,'154',,
3.953436,'193',,
3.953696,'135',,
3.953956,'224',,
3.954216,'12',,
3.954476,'176',,
3.954736,'139',,
3.954996,'19',,
3.955256,'140',,
3.955516,'4',,
3.955777,'8',,
4.087306,L,,
4.087566,C,,
4.087826,S,,
4.088086,A,,
4.088346,'250',,
4.088606,Q,,
4.088866,'160',,
4.089126,'0',,
4.089386,\n,,
4.089646,h,,
4.089906,'29',,
4.090166,'232',,
4.090426,'30',,
4.090686,'185',,
4.090946,'155',,
4.091206,'192',,
4.091466,'15',,
4.091726,'240',,
4.091986,'0',,
4.092246,'0',,
4.092506,'0',,
4.092766,'0',,
4.093026,'169',,
4.093286,'154',,
4.093546,'160',,
4.093806,'1',,
4.094066,'224',,
4.094326,'12',,
4.094586,'176',,
4.094846,'139',,
4.095106,'19',,
4.095366,'140',,
4.095626,'4',,
4.095886,'8',,
4.124858,L,,
4.125118,C,,
4.125378,S,,
4.125638,A,,
4.125898,'250',,
4.126158,Q,,
4.126418,'160',,
4.126678,'0',,
4.126938,\n,,
4.127198,h,,
4.127458,'29',,
4.127718,'232',,
4.127978,'30',,
4.128238,'185',,
4.128499,'155',,
4.128759,'192',,
4.129019,'15',,
4.129279,'240',,
4.129539,'0',,
4.129799,'0',,
4.130059,'0',,
4.130319,'0',,
4.130579,'169',,
4.130839,'154',,
4.131099,'160',,
4.131359,'1',,
4.131619,'224',,
4.131879,'12',,
4.132139,'176',,
4.132399,'139',,
4.132659,'19',,
4.132919,'140',,
4.133179,'4',,
4.133439,'8',,
4.237113,L,,
4.237373,C,,
4.237633,S,,
4.237893,A,,
4.238153,'250',,
4.238413,Q,,
4.238673,'160',,
4.238933,'0',,
4.239193,\n,,
4.239453,h,,
4.239713,'29',,
4.239973,'232',,
4.240233,'30',,
4.240493,'185',,
4.240753,'155',,
4.241013,'192',,
4.241273,'15',,
4.241533,'240',,
4.241793,'0',,
4.242053,'0',,
4.242313,'0',,
4.242573,'0',,
4.242833,'169',,
4.243093,'154',,
4.243353,'169',,
4.243613,'155',,
4.243874,'224',,
4.244134,'12',,
4.244394,'176',,
4.244654,'139',,
4.244914,'19',,
4.245174,'140',,
4.245434,'4',,
4.245694,'8',,
4.377117,L,,
4.377377,C,,
4.377637,S,,
4.377897,A,,
4.378157,'250',,
4.378417,Q,,
4.378677,'160',,
4.378937,'0',,
4.379197,\n,,
4.379457,h,,
4.379717,'29',,
4.379977,'232',,
4.380237,'30',,
4.380497,'185',,
4.380757,'155',,
4.381018,'192',,
4.381278,'15',,
4.381538,'240',,
4.381798,'0',,
4.382058,'0',,
4.382318,'0',,
4.382578,'0',,
4.382838,'169',,
4.383098,'154',,
4.383358,'225',,
4.383618,'141',,
4.383878,'225',,
4.384138,'132',,
4.384398,'176',,
4.384658,'139',,
4.384918,'19',,
4.385178,'140',,
4.385438,'4',,
4.385698,'8',,
4.425079,L,,
4.425339,C,,
4.425599,S,,
4.425859,A,,
4.426119,'250',,
4.426379,Q,,
4.426639,'160',,
4.426899,'0',,
4.427159,\n,,
4.427419,h,,
4.427679,'29',,
4.427939,'232',,
4.428199,'30',,
4.428459,'185',,
4.428719,'155',,
4.428979,'192',,
4.429239,'15',,
4.429499,'240',,
4.429759,'0',,
4.430019,'0',,
4.430279,'0',,
4.430539,'0',,
4.430799,'169',,
4.431059,'154',,
4.431319,'225',,
4.43158,'141',,
4.43184,'225',,
4.4321,'132',,
4.43236,'176',,
4.43262,'139',,
4.43288,'19',,
4.43314,'140',,
4.4334,'4',,
4.43366,'8',,
4.456115,L,,
4.456375,C,,
4.456635,S,,
4.456895,A,,
4.457155,'250',,
4.457415,Q,,
4.457675,'160',,
4.457935,'0',,
4.458195,\n,,
4.458455,h,,
4.458715,'29',,
4.458975,'232',,
4.459235,'30',,
4.459495,'185',,
4.459755,'155',,
4.460015,'192',,
4.460275,'15',,
4.460535,'248',,
4.460795,'0',,
4.461055,'0',,
4.461315,'0',,
4.461575,'0',,
4.461835,'169',,
4.462095,'154',,
4.462355,'225',,
4.462615,'141',,
4.462875,'225',,
4.463135,'132',,
4.463395,'176',,
4.463655,'139',,
4.463915,'19',,
4.464175,'140',,
4.464435,'4',,
4.464695,'8',,
4.485938,L,,
4.486198,C,,
4.486458,S,,
4.486718,A,,
4.486978,'250',,
4.487238,Q,,
4.487498,'160',,
4.487758,'0',,
4.488018,\n,,
4.488278,h,,
4.488538,'29',,
4.488798,'232',,
4.489058,'30',,
4.489318,'185',,
4.489578,'155',,
4.489838,'192',,
4.490098,'15',,
4.490358,'240',,
4.490618,'0',,
4.490878,'0',,
4.491138,'0',,
4.491398,'0',,
4.491658,'169',,
4.491918,'154',,
4.492178,'225',,
4.492438,'141',,
4.492699,'225',,
4.492959,'132',,
4.493219,'176',,
4.493479,'139',,
4.493739,'19',,
