Time [s],Value,Parity Error,Framing Error
0.118329,L,,
0.118589,C,,
0.118849,S,,
0.119109,A,,
0.119369,'250',,
0.119629,Q,,
0.119889,'160',,
0.120149,'0',,
0.120409,\n,,
0.120669,h,,
0.12093,'29',,
0.121189,'232',,
0.12145,'30',,
0.12171,'185',,
0.12197,'155',,
0.12223,'192',,
0.12249,'15',,
0.12275,'248',,
0.12301,'0',,
0.12327,'0',,
0.12353,'0',,
0.12379,'0',,
0.12405,'169',,
0.12431,'154',,
0.12457,'225',,
0.12483,'133',,
0.12509,'169',,
0.12535,'154',,
0.12561,'176',,
0.12587,'139',,
0.12613,'19',,
0.12639,'140',,
0.12665,'4',,
0.12691,'8',,
0.187291,L,,
0.187551,C,,
0.187811,S,,
0.188071,A,,
0.188331,'250',,
0.188591,Q,,
0.188851,'160',,
0.189111,'0',,
0.189371,\n,,
0.189632,h,,
0.189892,'29',,
0.190151,'232',,
0.190412,'30',,
0.190672,'185',,
0.190932,'155',,
0.191192,'192',,
0.191452,'15',,
0.191712,'248',,
0.191972,'0',,
0.192232,'0',,
0.192492,'0',,
0.192752,'0',,
0.193012,'169',,
0.193272,'154',,
0.193532,'225',,
0.193792,'133',,
0.194052,'169',,
0.194312,'154',,
0.194572,'176',,
0.194832,'139',,
0.195092,'19',,
0.195352,'140',,
0.195612,'4',,
0.195872,'8',,
0.328227,L,,
0.328487,C,,
0.328747,S,,
0.329007,A,,
0.329267,'250',,
0.329527,Q,,
0.329787,'160',,
0.330047,'0',,
0.330307,\n,,
0.330567,h,,
0.330827,'29',,
0.331087,'232',,
0.331347,'30',,
0.331607,'185',,
0.331867,'155',,
0.332127,'192',,
0.332387,'15',,
0.332647,'240',,
0.332907,'0',,
0.333167,'0',,
0.333427,'0',,
0.333687,'0',,
0.333947,'169',,
0.334207,'154',,
0.334467,'225',,
0.334727,'133',,
0.334987,'169',,
0.335247,'154',,
0.335507,'176',,
0.335768,'139',,
0.336028,'19',,
0.336288,'140',,
0.336548,'4',,
0.336808,'8',,
0.439547,L,,
0.439807,C,,
0.440067,S,,
0.440327,A,,
0.440587,'250',,
0.440847,Q,,
0.441107,'160',,
0.441367,'0',,
0.441627,\n,,
0.441887,h,,
0.442147,'29',,
0.442407,'232',,
0.442667,'30',,
0.442927,'185',,
0.443187,'155',,
0.443447,'192',,
0.443707,'15',,
0.443967,'240',,
0.444227,'0',,
0.444488,'0',,
0.444748,'0',,
0.445008,'0',,
0.445268,'169',,
0.445528,'154',,
0.445788,'224',,
0.446048,\r,,
0.446308,'169',,
0.446568,'154',,
0.446828,'176',,
0.447088,'139',,
0.447348,'19',,
0.447608,'140',,
0.447868,'4',,
0.448128,'8',,
0.487691,L,,
0.487951,C,,
0.488211,S,,
0.488471,A,,
0.488731,'250',,
0.488991,Q,,
0.489251,'160',,
0.489511,'0',,
0.489771,\n,,
0.490031,h,,
0.490291,'29',,
0.490551,'232',,
0.490811,'30',,
0.491071,'185',,
0.491331,'155',,
0.491591,'192',,
0.491851,'15',,
0.492111,'240',,
0.492371,'0',,
0.492631,'0',,
0.492891,'0',,
0.493151,'0',,
0.493411,'169',,
0.493671,'154',,
0.493931,'224',,
0.494191,\r,,
0.494451,'169',,
0.494711,'154',,
0.494971,'176',,
0.495232,'139',,
0.495492,'19',,
0.495752,'140',,
0.496012,'4',,
0.496272,'8',,
0.569682,L,,
0.569942,C,,
0.570202,S,,
0.570462,A,,
0.570722,'250',,
0.570982,Q,,
0.571242,'160',,
0.571502,'0',,
0.571762,\n,,
0.572022,h,,
0.572282,'29',,
0.572542,'232',,
0.572802,'30',,
0.573062,'185',,
0.573322,'155',,
0.573582,'192',,
0.573842,'15',,
0.574102,'240',,
0.574362,'0',,
0.574622,'0',,
0.574882,'0',,
0.575142,'0',,
0.575402,'169',,
0.575662,'154',,
0.575922,a,,
0.576182,'141',,
0.576442,'169',,
0.576702,'154',,
0.576962,'176',,
0.577222,'139',,
0.577482,'19',,
0.577743,'140',,
0.578003,'4',,
0.578263,'8',,
0.699704,L,,
0.699964,C,,
0.700224,S,,
0.700484,A,,
0.700744,'250',,
0.701004,Q,,
0.701264,'160',,
0.701524,'0',,
0.701784,\n,,
0.702045,h,,
0.702305,'29',,
0.702565,'232',,
0.702825,'30',,
0.703085,'185',,
0.703345,'155',,
0.703605,'192',,
0.703865,'15',,
0.704125,'240',,
0.704385,'0',,
0.704645,'0',,
0.704905,'0',,
0.705165,'0',,
0.705425,'169',,
0.705685,'154',,
0.705945,a,,
0.706205,'143',,
0.706465,'169',,
0.706725,'154',,
0.706985,'176',,
0.707245,'139',,
0.707505,'19',,
0.707765,'140',,
0.708025,'4',,
0.708285,'8',,
0.787349,L,,
0.787609,C,,
0.787869,S,,
0.788129,A,,
0.788389,'250',,
0.788649,Q,,
0.788909,'160',,
0.789169,'0',,
0.789429,\n,,
0.789689,h,,
0.789949,'29',,
0.790209,'232',,
0.790469,'30',,
0.790729,'185',,
0.79099,'155',,
0.79125,'192',,
0.79151,'15',,
0.79177,'240',,
0.79203,'0',,
0.79229,'0',,
0.79255,'0',,
0.79281,'0',,
0.79307,'169',,
0.79333,'154',,
0.79359,a,,
0.79385,'143',,
0.79411,'169',,
0.79437,'154',,
0.79463,'176',,
0.79489,'139',,
0.79515,'19',,
0.79541,'140',,
0.79567,'4',,
0.79593,'8',,
0.829585,L,,
0.829846,C,,
0.830106,S,,
0.830366,A,,
0.830626,'250',,
0.830886,Q,,
0.831146,'160',,
0.831406,'0',,
0.831666,\n,,
0.831926,h,,
0.832186,'29',,
0.832446,'232',,
0.832706,'30',,
0.832966,'185',,
0.833226,'155',,
0.833486,'192',,
0.833746,'15',,
0.834006,'240',,
0.834266,'0',,
0.834526,'0',,
0.834786,'0',,
0.835046,'0',,
0.835306,'169',,
0.835566,'154',,
0.835826,'160',,
0.836086,'129',,
0.836346,'169',,
0.836606,'154',,
0.836866,'176',,
0.837126,'139',,
0.837386,'19',,
0.837646,'140',,
0.837906,'4',,
0.838166,'8',,
0.959598,L,,
0.959858,C,,
0.960118,S,,
0.960378,A,,
0.960638,'250',,
0.960898,Q,,
0.961158,'160',,
0.961418,'0',,
0.961678,\n,,
0.961938,h,,
0.962199,'29',,
0.962459,'232',,
0.962719,'30',,
0.962979,'185',,
0.963239,'155',,
0.963499,'192',,
0.963759,'15',,
0.964019,'240',,
0.964279,'0',,
0.964539,'0',,
0.964799,'0',,
0.965059,'0',,
0.965319,'169',,
0.965579,'154',,
0.965839,'225',,
0.966099,'143',,
0.966359,'169',,
0.966619,'154',,
0.966879,'176',,
0.967139,'139',,
0.967399,'19',,
0.967659,'140',,
0.967919,'4',,
0.968179,'8',,
1.07961,L,,
1.07987,C,,
1.08013,S,,
1.08039,A,,
1.08065,'250',,
1.08091,Q,,
1.08117,'160',,
1.08143,'0',,
1.08169,\n,,
1.08195,h,,
1.08221,'29',,
1.08247,'232',,
1.08273,'30',,
1.08299,'185',,
1.08325,'155',,
1.08351,'192',,
1.08377,'15',,
1.08403,'240',,
1.08429,'0',,
1.08455,'0',,
1.08481,'0',,
1.08507,'0',,
1.08533,'169',,
1.08559,'154',,
1.08585,'225',,
1.08611,'141',,
1.086371,'169',,
1.086631,'154',,
1.086891,'176',,
1.087151,'139',,
1.087411,'19',,
1.087671,'140',,
1.087931,'4',,
1.088191,'8',,
1.097563,L,,
1.097823,C,,
1.098083,S,,
1.098343,A,,
1.098603,'250',,
1.098863,Q,,
1.099123,'160',,
1.099383,'0',,
1.099643,\n,,
1.099903,h,,
1.100163,'29',,
1.100423,'232',,
1.100683,'30',,
1.100943,'185',,
1.101203,'155',,
1.101463,'192',,
1.101723,'15',,
1.101983,'240',,
1.102243,'0',,
1.102503,'0',,
1.102764,'0',,
1.103024,'0',,
1.103284,'169',,
1.103544,'154',,
1.103804,'225',,
1.104064,'141',,
1.104324,'169',,
1.104584,'154',,
1.104844,'176',,
1.105104,'139',,
1.105364,'19',,
1.105624,'140',,
1.105884,'4',,
1.106144,'8',,
1.199755,L,,
1.200015,C,,
1.200275,S,,
1.200535,A,,
1.200795,'250',,
1.201055,Q,,
1.201315,'160',,
1.201575,'0',,
1.201835,\n,,
1.202095,h,,
1.202355,'29',,
1.202615,'232',,
1.202875,'30',,
1.203135,'185',,
1.203395,'155',,
1.203655,'192',,
1.203915,'15',,
1.204175,'240',,
1.204435,'0',,
1.204695,'0',,
1.204955,'0',,
1.205215,'0',,
1.205475,'169',,
1.205735,'154',,
1.205995,'169',,
1.206255,'155',,
1.206515,'160',,
1.206775,'0',,
1.207035,'176',,
1.207295,'139',,
1.207555,'19',,
1.207815,'140',,
1.208076,'4',,
1.208336,'8',,
1.329756,L,,
1.330016,C,,
1.330276,S,,
1.330536,A,,
1.330796,'250',,
1.331056,Q,,
1.331316,'160',,
1.331576,'0',,
1.331836,\n,,
1.332096,h,,
1.332356,'29',,
1.332616,'232',,
1.332876,'30',,
1.333136,'185',,
1.333397,'155',,
1.333656,'192',,
1.333917,'15',,
1.334177,'240',,
1.334437,'0',,
1.334697,'0',,
1.334957,'0',,
1.335217,'0',,
1.335477,'169',,
1.335737,'154',,
1.335997,'160',,
1.336257,'1',,
1.336517,'160',,
1.336777,'0',,
1.337037,'176',,
1.337297,'139',,
1.337557,'19',,
1.337817,'140',,
1.338077,'4',,
1.338337,'8',,
1.39742,L,,
1.39768,C,,
1.39794,S,,
1.3982,A,,
1.39846,'250',,
1.39872,Q,,
1.39898,'160',,
1.39924,'0',,
1.3995,\n,,
1.39976,h,,
1.40002,'29',,
1.40028,'232',,
1.40054,'30',,
1.4008,'185',,
1.40106,'155',,
1.40132,'192',,
1.40158,'15',,
1.40184,'240',,
1.4021,'0',,
1.40236,'0',,
1.40262,'0',,
1.40288,'0',,
1.40314,'169',,
1.4034,'154',,
1.40366,'160',,
1.40392,'1',,
1.40418,'160',,
1.40444,'0',,
1.4047,'176',,
1.40496,'139',,
1.40522,'19',,
1.40548,'140',,
1.40574,'4',,
1.406,'8',,
1.449647,L,,
1.449907,C,,
1.450167,S,,
1.450428,A,,
1.450688,'250',,
1.450948,Q,,
1.451208,'160',,
1.451468,'0',,
1.451728,\n,,
1.451988,h,,
1.452248,'29',,
1.452508,'232',,
1.452768,'30',,
1.453028,'185',,
1.453288,'155',,
1.453548,'192',,
1.453808,'15',,
1.454068,'240',,
1.454328,'0',,
1.454588,'0',,
1.454848,'0',,
1.455108,'0',,
1.455368,'169',,
1.455628,'154',,
1.455888,'193',,
1.456148,'135',,
1.456408,'160',,
1.456668,'0',,
1.456928,'176',,
1.457188,'139',,
1.457448,'19',,
1.457708,'140',,
1.457968,'4',,
1.458228,'8',,
1.569657,L,,
1.569917,C,,
1.570177,S,,
1.570437,A,,
1.570697,'250',,
1.570958,Q,,
1.571218,'160',,
1.571478,'0',,
1.571738,\n,,
1.571998,h,,
1.572258,'29',,
1.572518,'232',,
1.572778,'30',,
1.573038,'185',,
1.573298,'155',,
1.573558,'192',,
1.573818,'15',,
1.574078,'240',,
1.574338,'0',,
1.574598,'0',,
1.574858,'0',,
1.575118,'0',,
1.575378,'169',,
1.575638,'154',,
1.575898,'225',,
1.576158,'133',,
1.576418,'160',,
1.576678,'0',,
1.576938,'176',,
1.577198,'139',,
1.577458,'19',,
1.577718,'140',,
1.577978,'4',,
1.578238,'8',,
1.689671,L,,
1.689931,C,,
1.690191,S,,
1.690451,A,,
1.690711,'250',,
1.690971,Q,,
1.691231,'160',,
1.691491,'0',,
1.691751,\n,,
1.692011,h,,
1.692271,'29',,
1.692531,'232',,
1.692791,'30',,
1.693051,'185',,
1.693311,'155',,
1.693571,'192',,
1.693831,'15',,
1.694091,'240',,
1.694351,'0',,
1.694611,'0',,
1.694871,'0',,
1.695131,'0',,
1.695391,'169',,
1.695651,'154',,
1.695911,'224',,
1.696171,\r,,
1.696431,'160',,
1.696691,'0',,
1.696951,'176',,
1.697211,'139',,
1.697471,'19',,
1.697731,'140',,
1.697991,'4',,
1.698251,'8',,
1.707612,L,,
1.707872,C,,
1.708132,S,,
1.708392,A,,
1.708652,'250',,
1.708913,Q,,
1.709173,'160',,
1.709433,'0',,
1.709693,\n,,
1.709953,h,,
1.710213,'29',,
1.710473,'232',,
1.710733,'30',,
1.710993,'185',,
1.711253,'155',,
1.711513,'192',,
1.711773,'15',,
1.712033,'240',,
1.712293,'0',,
1.712553,'0',,
1.712813,'0',,
1.713073,'0',,
1.713333,'169',,
1.713593,'154',,
1.713853,'224',,
1.714113,\r,,
1.714373,'160',,
1.714633,'0',,
1.714893,'176',,
1.715153,'139',,
1.715413,'19',,
1.715673,'140',,
1.715933,'4',,
1.716193,'8',,
1.819807,L,,
1.820067,C,,
1.820327,S,,
1.820587,A,,
1.820847,'250',,
1.821107,Q,,
1.821367,'160',,
1.821627,'0',,
1.821887,\n,,
1.822147,h,,
1.822407,'29',,
1.822667,'232',,
1.822927,'30',,
1.823187,'185',,
1.823447,'155',,
1.823707,'192',,
1.823967,'15',,
1.824227,'240',,
1.824487,'0',,
1.824747,'0',,
1.825007,'0',,
1.825267,'0',,
1.825527,'169',,
1.825788,'154',,
1.826048,a,,
1.826308,'141',,
1.826568,'160',,
1.826828,'0',,
1.827088,'176',,
1.827348,'139',,
1.827608,'19',,
1.827868,'140',,
1.828128,'4',,
1.828388,'8',,
1.939819,L,,
1.940079,C,,
1.940339,S,,
1.940599,A,,
1.940859,'250',,
1.941119,Q,,
1.941379,'160',,
1.941639,'0',,
1.941899,\n,,
1.942159,h,,
1.942419,'29',,
1.942679,'232',,
1.942939,'30',,
1.943199,'185',,
1.943459,'155',,
1.943719,'192',,
1.943979,'15',,
1.944239,'240',,
1.944499,'0',,
1.944759,'0',,
1.945019,'0',,
1.945279,'0',,
1.945539,'169',,
1.945799,'154',,
1.946059,a,,
1.946319,'143',,
1.946579,'160',,
1.946839,'0',,
1.947099,'176',,
1.947359,'139',,
1.947619,'19',,
1.947879,'140',,
1.948139,'4',,
1.948399,'8',,
2.007471,L,,
2.007731,C,,
2.007991,S,,
2.008251,A,,
2.008511,'250',,
2.008771,Q,,
2.009031,'160',,
2.009291,'0',,
2.009551,\n,,
2.009811,h,,
2.010071,'29',,
2.010331,'232',,
2.010591,'30',,
2.010851,'185',,
2.011111,'155',,
2.011371,'192',,
2.011631,'15',,
2.011891,'240',,
2.012151,'0',,
2.012411,'0',,
2.012671,'0',,
2.012931,'0',,
2.013191,'169',,
2.013451,'154',,
2.013711,a,,
2.013971,'143',,
2.014231,'160',,
2.014491,'0',,
2.014751,'176',,
2.015011,'139',,
2.015271,'19',,
2.015531,'140',,
2.015792,'4',,
2.016052,'8',,
2.059707,L,,
2.059967,C,,
2.060227,S,,
2.060487,A,,
2.060747,'250',,
2.061007,Q,,
2.061267,'160',,
2.061527,'0',,
2.061787,\n,,
2.062047,h,,
2.062307,'29',,
2.062567,'232',,
2.062827,'30',,
2.063087,'185',,
2.063347,'155',,
2.063607,'192',,
2.063867,'15',,
2.064127,'240',,
2.064387,'0',,
2.064647,'0',,
2.064907,'0',,
2.065167,'0',,
2.065427,'169',,
2.065687,'154',,
2.065947,'160',,
2.066207,'129',,
2.066467,'160',,
2.066727,'0',,
2.066987,'176',,
2.067247,'139',,
2.067507,'19',,
2.067767,'140',,
2.068027,'4',,
2.068287,'8',,
2.179718,L,,
2.179978,C,,
2.180238,S,,
2.180498,A,,
2.180758,'250',,
2.181018,Q,,
2.181278,'160',,
2.181538,'0',,
2.181798,\n,,
2.182058,h,,
2.182318,'29',,
2.182578,'232',,
2.182838,'30',,
2.183098,'185',,
2.183359,'155',,
2.183619,'192',,
2.183879,'15',,
2.184139,'240',,
2.184399,'0',,
2.184659,'0',,
2.184919,'0',,
2.185179,'0',,
2.185439,'169',,
2.185699,'154',,
2.185959,'225',,
2.186219,'143',,
2.186479,'160',,
2.186739,'0',,
2.186999,'176',,
2.187259,'139',,
2.187519,'19',,
2.187779,'140',,
2.188039,'4',,
2.188299,'8',,
2.309879,L,,
2.310139,C,,
2.310399,S,,
2.310659,A,,
2.310919,'250',,
2.311179,Q,,
2.311439,'160',,
2.311699,'0',,
2.311959,\n,,
2.312219,h,,
2.312479,'29',,
2.312739,'232',,
2.312999,'30',,
2.313259,'185',,
2.313519,'155',,
2.313779,'192',,
2.314039,'15',,
2.314299,'240',,
2.314559,'0',,
2.314819,'0',,
2.315079,'0',,
2.315339,'0',,
2.315599,'169',,
2.315859,'154',,
2.316119,'225',,
2.31638,'141',,
2.31664,'160',,
2.3169,'0',,
2.31716,'176',,
2.31742,'139',,
2.31768,'19',,
2.31794,'140',,
2.3182,'4',,
2.31846,'8',,
2.449869,L,,
2.450129,C,,
2.450389,S,,
2.450649,A,,
2.450909,'250',,
2.451169,Q,,
2.451429,'160',,
2.451689,'0',,
2.451949,\n,,
2.452209,h,,
2.452469,'29',,
2.452729,'232',,
2.452989,'30',,
2.453249,'185',,
2.453509,'155',,
2.453769,'192',,
2.454029,'15',,
2.454289,'240',,
2.454549,'0',,
2.454809,'0',,
2.455069,'0',,
2.455329,'0',,
2.455589,'169',,
2.455849,'154',,
2.456109,'169',,
2.456369,'155',,
2.456629,'193',,
2.456889,'134',,
2.457149,'176',,
2.457409,'139',,
2.457669,'19',,
2.457929,'140',,
2.458189,'4',,
2.458449,'8',,
2.589879,L,,
2.590139,C,,
2.590399,S,,
2.590659,A,,
2.590919,'250',,
2.591179,Q,,
2.591439,'160',,
2.5917,'0',,
2.59196,\n,,
2.59222,h,,
2.59248,'29',,
2.59274,'232',,
2.593,'30',,
2.59326,'185',,
2.59352,'155',,
2.59378,'192',,
2.59404,'15',,
2.5943,'240',,
2.59456,'0',,
2.59482,'0',,
2.59508,'0',,
2.59534,'0',,
2.5956,'169',,
2.59586,'154',,
2.59612,'160',,
2.59638,'1',,
2.59664,'193',,
2.5969,'134',,
2.59716,'176',,
2.59742,'139',,
2.59768,'19',,
2.59794,'140',,
2.5982,'4',,
2.59846,'8',,
2.60753,L,,
2.60779,C,,
2.60805,S,,
2.60831,A,,
2.60857,'250',,
2.60883,Q,,
2.60909,'160',,
2.60935,'0',,
2.60961,\n,,
2.60987,h,,
2.61013,'29',,
2.61039,'232',,
2.61065,'30',,
2.610911,'185',,
2.611171,'155',,
2.611431,'192',,
2.611691,'15',,
2.611951,'240',,
2.612211,'0',,
2.612471,'0',,
2.612731,'0',,
2.612991,'0',,
2.613251,'169',,
2.613511,'154',,
2.613771,'160',,
2.614031,'1',,
2.614291,'193',,
2.614551,'134',,
2.614811,'176',,
2.615071,'139',,
2.615331,'19',,
2.615591,'140',,
2.615851,'4',,
2.616111,'8',,
2.739773,L,,
2.740033,C,,
2.740293,S,,
2.740553,A,,
2.740813,'250',,
2.741073,Q,,
2.741333,'160',,
2.741593,'0',,
2.741853,\n,,
2.742113,h,,
2.742373,'29',,
2.742633,'232',,
2.742893,'30',,
2.743153,'185',,
2.743413,'155',,
2.743673,'192',,
2.743933,'15',,
2.744193,'240',,
2.744453,'0',,
2.744713,'0',,
2.744973,'0',,
2.745233,'0',,
2.745493,'169',,
2.745753,'154',,
2.746013,'193',,
2.746273,'135',,
2.746533,'193',,
2.746793,'134',,
2.747053,'176',,
2.747313,'139',,
2.747573,'19',,
2.747834,'140',,
2.748094,'4',,
2.748354,'8',,
2.907728,L,,
2.907988,C,,
2.908248,S,,
2.908508,A,,
2.908768,'250',,
2.909028,Q,,
2.909288,'160',,
2.909548,'0',,
2.909808,\n,,
2.910068,h,,
2.910328,'29',,
2.910588,'232',,
2.910848,'30',,
2.911108,'185',,
2.911369,'155',,
2.911629,'192',,
2.911889,'15',,
2.912149,'240',,
2.912409,'0',,
2.912669,'0',,
2.912929,'0',,
2.913189,'0',,
2.913449,'169',,
2.913709,'154',,
2.913969,'193',,
2.914229,'135',,
2.914489,'193',,
2.914749,'134',,
2.915009,'176',,
2.915269,'139',,
2.915529,'19',,
2.915789,'140',,
2.916049,'4',,
2.916309,'8',,
3.029926,L,,
3.030186,C,,
3.030446,S,,
3.030706,A,,
3.030966,'250',,
3.031226,Q,,
3.031486,'160',,
3.031746,'0',,
3.032006,\n,,
3.032266,h,,
3.032526,'29',,
3.032786,'232',,
3.033046,'30',,
3.033306,'185',,
3.033566,'155',,
3.033826,'192',,
3.034086,'15',,
3.034346,'240',,
3.034606,'0',,
3.034866,'0',,
3.035126,'0',,
3.035386,'0',,
3.035646,'169',,
3.035906,'154',,
3.036166,'225',,
3.036426,'133',,
3.036686,'193',,
3.036946,'134',,
3.037206,'176',,
3.037466,'139',,
3.037726,'19',,
3.037986,'140',,
3.038246,'4',,
3.038506,'8',,
3.048621,L,,
3.048881,C,,
3.049141,S,,
3.049401,A,,
3.049662,'250',,
3.049922,Q,,
3.050182,'160',,
3.050442,'0',,
3.050702,\n,,
3.050962,h,,
3.051222,'29',,
3.051482,'232',,
3.051742,'30',,
3.052002,'185',,
3.052262,'155',,
3.052522,'192',,
3.052782,'15',,
3.053042,'248',,
3.053302,'0',,
3.053562,'0',,
3.053822,'0',,
3.054082,'0',,
3.054342,'169',,
3.054602,'154',,
3.054862,'225',,
3.055122,'133',,
3.055382,'193',,
3.055642,'134',,
3.055902,'176',,
3.056162,'139',,
3.056422,'19',,
3.056682,'140',,
3.056942,'4',,
3.057202,'8',,
3.078796,L,,
3.079056,C,,
3.079316,S,,
3.079576,A,,
3.079836,'250',,
3.080096,Q,,
3.080356,'160',,
3.080616,'0',,
3.080876,\n,,
3.081136,h,,
3.081396,'29',,
3.081656,'232',,
3.081916,'30',,
3.082176,'185',,
3.082436,'155',,
3.082696,'192',,
3.082956,'15',,
3.083216,'240',,
3.083476,'0',,
3.083736,'0',,
3.083996,'0',,
3.084256,'0',,
3.084516,'169',,
3.084776,'154',,
3.085036,'225',,
3.085296,'133',,
3.085556,'193',,
3.085816,'134',,
3.086076,'176',,
3.086337,'139',,
3.086597,'19',,
3.086857,'140',,
3.087117,'4',,
3.087377,'8',,
3.169938,L,,
3.170198,C,,
3.170458,S,,
3.170718,A,,
3.170978,'250',,
3.171238,Q,,
3.171498,'160',,
3.171758,'0',,
3.172018,\n,,
3.172278,h,,
3.172538,'29',,
3.172798,'232',,
3.173058,'30',,
3.173318,'185',,
3.173578,'155',,
3.173838,'192',,
3.174098,'15',,
3.174358,'240',,
3.174618,'0',,
3.174878,'0',,
3.175138,'0',,
3.175399,'0',,
3.175659,'169',,
3.175919,'154',,
3.176179,'224',,
3.176439,\r,,
3.176699,'193',,
3.176959,'134',,
3.177219,'176',,
3.177479,'139',,
3.177739,'19',,
3.177999,'140',,
3.178259,'4',,
3.178519,'8',,
3.20759,L,,
3.20785,C,,
3.20811,S,,
3.20837,A,,
3.20863,'250',,
3.20889,Q,,
3.20915,'160',,
3.20941,'0',,
3.20967,\n,,
3.20993,h,,
3.21019,'29',,
3.21045,'232',,
3.21071,'30',,
3.21097,'185',,
3.21123,'155',,
3.21149,'192',,
3.21175,'15',,
3.21201,'240',,
3.21227,'0',,
3.21253,'0',,
3.21279,'0',,
3.21305,'0',,
3.21331,'169',,
3.21357,'154',,
3.21383,'224',,
3.21409,\r,,
3.21435,'193',,
3.21461,'134',,
3.21487,'176',,
3.21513,'139',,
3.21539,'19',,
3.21565,'140',,
3.21591,'4',,
3.216171,'8',,
3.31983,L,,
3.32009,C,,
3.32035,S,,
3.32061,A,,
3.32087,'250',,
3.32113,Q,,
3.32139,'160',,
3.32165,'0',,
3.32191,\n,,
3.32217,h,,
3.32243,'29',,
3.32269,'232',,
3.32295,'30',,
3.32321,'185',,
3.32347,'155',,
3.32373,'192',,
3.32399,'15',,
3.32425,'240',,
3.32451,'0',,
3.32477,'0',,
3.32503,'0',,
3.32529,'0',,
3.32555,'169',,
3.32581,'154',,
3.32607,a,,
3.32633,'141',,
3.32659,'193',,
3.32685,'134',,
3.32711,'176',,
3.327371,'139',,
3.327631,'19',,
3.327891,'140',,
3.328151,'4',,
3.328411,'8',,
3.398543,L,,
3.398803,C,,
3.399063,S,,
3.399323,A,,
3.399583,'250',,
3.399843,Q,,
3.400103,'160',,
3.400363,'0',,
3.400623,\n,,
3.400883,h,,
3.401143,'29',,
3.401403,'232',,
3.401663,'30',,
3.401923,'185',,
3.402183,'155',,
3.402443,'192',,
3.402703,'15',,
3.402963,'248',,
3.403223,'0',,
3.403483,'0',,
3.403743,'0',,
3.404003,'0',,
3.404263,'169',,
3.404523,'154',,
3.404783,a,,
3.405043,'141',,
3.405303,'193',,
3.405563,'134',,
3.405823,'176',,
3.406084,'139',,
3.406344,'19',,
3.406604,'140',,
3.406864,'4',,
3.407124,'8',,
3.418532,L,,
3.418792,C,,
3.419052,S,,
3.419312,A,,
3.419572,'250',,
3.419832,Q,,
3.420092,'160',,
3.420352,'0',,
3.420612,\n,,
3.420872,h,,
3.421133,'29',,
3.421393,'232',,
3.421653,'30',,
3.421913,'185',,
3.422173,'155',,
3.422433,'192',,
3.422693,'15',,
3.422953,'240',,
3.423213,'0',,
3.423473,'0',,
3.423733,'0',,
3.423993,'0',,
3.424253,'169',,
3.424513,'154',,
3.424773,a,,
3.425033,'141',,
3.425293,'193',,
3.425553,'134',,
3.425813,'176',,
3.426073,'139',,
3.426333,'19',,
3.426593,'140',,
3.426853,'4',,
3.427113,'8',,
3.479846,L,,
