Time [s],Value,Parity Error,Framing Error
0.140587,L,,
0.140847,C,,
0.141107,S,,
0.141367,A,,
0.141627,'250',,
0.141887,Q,,
0.142147,'160',,
0.142407,'0',,
0.142667,\n,,
0.142927,h,,
0.143187,'29',,
0.143447,'232',,
0.143707,'30',,
0.143967,'185',,
0.144227,'155',,
0.144487,'192',,
0.144748,'15',,
0.145008,'252',,
0.145268,'0',,
0.145528,'0',,
0.145788,'0',,
0.146048,'0',,
0.146308,'160',,
0.146568,'128',,
0.146828,'169',,
0.147088,'155',,
0.147348,'160',,
0.147608,'128',,
0.147868,'176',,
0.148128,'139',,
0.148388,'19',,
0.148648,'140',,
0.148908,'4',,
0.149168,'8',,
0.201518,L,,
0.201778,C,,
0.202038,S,,
0.202298,A,,
0.202558,'250',,
0.202818,Q,,
0.203078,'160',,
0.203338,'0',,
0.203598,\n,,
0.203858,h,,
0.204118,'29',,
0.204378,'232',,
0.204638,'30',,
0.204898,'185',,
0.205158,'155',,
0.205418,'192',,
0.205678,'15',,
0.205938,'248',,
0.206198,'0',,
0.206458,'0',,
0.206718,'0',,
0.206978,'0',,
0.207238,'160',,
0.207498,'128',,
0.207758,'169',,
0.208018,'155',,
0.208278,'160',,
0.208538,'128',,
0.208798,'176',,
0.209058,'139',,
0.209318,'19',,
0.209578,'140',,
0.209838,'4',,
0.210098,'8',,
0.291527,L,,
0.291787,C,,
0.292047,S,,
0.292307,A,,
0.292567,'250',,
0.292827,Q,,
0.293087,'160',,
0.293347,'0',,
0.293607,\n,,
0.293867,h,,
0.294127,'29',,
0.294387,'232',,
0.294647,'30',,
0.294907,'185',,
0.295167,'155',,
0.295428,'192',,
0.295688,'15',,
0.295948,'252',,
0.296208,'0',,
0.296468,'0',,
0.296728,'0',,
0.296988,'0',,
0.297248,'160',,
0.297508,'128',,
0.297768,'169',,
0.298028,'155',,
0.298288,'160',,
0.298548,'128',,
0.298808,'176',,
0.299068,'139',,
0.299328,'19',,
0.299588,'140',,
0.299848,'4',,
0.300108,'8',,
0.431541,L,,
0.431801,C,,
0.432061,S,,
0.432321,A,,
0.432581,'250',,
0.432841,Q,,
0.433101,'160',,
0.433361,'0',,
0.433621,\n,,
0.433881,h,,
0.434142,'29',,
0.434402,'232',,
0.434662,'30',,
0.434922,'185',,
0.435182,'155',,
0.435442,'192',,
0.435702,'15',,
0.435962,'248',,
0.436222,'0',,
0.436482,'0',,
0.436742,'0',,
0.437002,'0',,
0.437262,'160',,
0.437522,'128',,
0.437782,'169',,
0.438042,'155',,
0.438302,'160',,
0.438562,'128',,
0.438822,'176',,
0.439082,'139',,
0.439342,'19',,
0.439602,'140',,
0.439862,'4',,
0.440122,'8',,
0.440788,L,,
0.441048,C,,
0.441308,S,,
0.441568,A,,
0.441829,'250',,
0.442089,Q,,
0.442349,'160',,
0.442609,'0',,
0.442869,\n,,
0.443129,h,,
0.443389,'29',,
0.443649,'232',,
0.443909,'30',,
0.444169,'185',,
0.444429,'155',,
0.444689,'192',,
0.444949,'15',,
0.445209,'248',,
0.445469,'0',,
0.445729,'0',,
0.445989,'0',,
0.446249,'0',,
0.446509,'160',,
0.446769,'128',,
0.447029,'169',,
0.447289,'155',,
0.447549,'160',,
0.447809,'128',,
0.448069,'176',,
0.448329,'139',,
0.448589,'19',,
0.448849,'140',,
0.449109,'4',,
0.449369,'8',,
0.451666,L,,
0.451926,C,,
0.452186,S,,
0.452446,A,,
0.452706,'250',,
0.452966,Q,,
0.453226,'160',,
0.453486,'0',,
0.453746,\n,,
0.454006,h,,
0.454266,'29',,
0.454526,'232',,
0.454786,'30',,
0.455046,'185',,
0.455306,'155',,
0.455566,'192',,
0.455826,'15',,
0.456086,'252',,
0.456346,'0',,
0.456606,'0',,
0.456866,'0',,
0.457126,'0',,
0.457386,'160',,
0.457646,'128',,
0.457906,'169',,
0.458166,'155',,
0.458426,'160',,
0.458686,'128',,
0.458946,'176',,
0.459206,'139',,
0.459466,'19',,
0.459726,'140',,
0.459986,'4',,
0.460246,'8',,
0.740647,L,,
0.740907,C,,
0.741167,S,,
0.741427,A,,
0.741687,'250',,
0.741947,Q,,
0.742207,'160',,
0.742467,'0',,
0.742727,\n,,
0.742987,h,,
0.743247,'29',,
0.743507,'232',,
0.743767,'30',,
0.744027,'185',,
0.744287,'155',,
0.744547,'192',,
0.744807,'15',,
0.745067,'252',,
0.745327,'0',,
0.745587,'0',,
0.745847,'0',,
0.746107,'0',,
0.746367,'160',,
0.746627,'128',,
0.746887,'169',,
0.747147,'155',,
0.747407,'160',,
0.747668,'128',,
0.747928,'176',,
0.748188,'139',,
0.748448,'19',,
0.748708,'140',,
0.748968,'4',,
0.749228,'8',,
1.040848,L,,
1.041108,C,,
1.041368,S,,
1.041628,A,,
1.041888,'250',,
1.042148,Q,,
1.042408,'160',,
1.042668,'0',,
1.042928,\n,,
1.043188,h,,
1.043448,'29',,
1.043708,'232',,
1.043968,'30',,
1.044228,'185',,
1.044488,'155',,
1.044749,'192',,
1.045009,'15',,
1.045269,'252',,
1.045529,'0',,
1.045789,'0',,
1.046049,'0',,
1.046309,'0',,
1.046569,'160',,
1.046829,'128',,
1.047089,'169',,
1.047349,'155',,
1.047609,'160',,
1.047869,'128',,
1.048129,'176',,
1.048389,'139',,
1.048649,'19',,
1.048909,'140',,
1.049169,'4',,
1.049429,'8',,
1.340707,L,,
1.340967,C,,
1.341227,S,,
1.341487,A,,
1.341747,'250',,
1.342007,Q,,
1.342267,'160',,
1.342527,'0',,
1.342787,\n,,
1.343047,h,,
1.343307,'29',,
1.343567,'232',,
1.343827,'30',,
1.344087,'185',,
1.344347,'155',,
1.344607,'192',,
1.344867,'15',,
1.345127,'252',,
1.345387,'0',,
1.345647,'0',,
1.345907,'0',,
1.346167,'0',,
1.346427,'160',,
1.346687,'128',,
1.346947,'169',,
1.347207,'155',,
1.347467,'160',,
1.347727,'128',,
1.347987,'176',,
1.348247,'139',,
1.348507,'19',,
1.348767,'140',,
1.349027,'4',,
1.349287,'8',,
1.640906,L,,
1.641166,C,,
1.641426,S,,
1.641686,A,,
1.641946,'250',,
1.642206,Q,,
1.642466,'160',,
1.642726,'0',,
1.642986,\n,,
1.643246,h,,
1.643506,'29',,
1.643766,'232',,
1.644027,'30',,
1.644287,'185',,
1.644547,'155',,
1.644807,'192',,
1.645067,'15',,
1.645327,'252',,
1.645587,'0',,
1.645847,'0',,
1.646107,'0',,
1.646367,'0',,
1.646627,'160',,
1.646887,'128',,
1.647147,'169',,
1.647407,'155',,
1.647667,'160',,
1.647927,'128',,
1.648187,'176',,
1.648447,'139',,
1.648707,'19',,
1.648967,'140',,
1.649227,'4',,
1.649487,'8',,
1.813757,L,,
1.814017,C,,
1.814277,S,,
1.814537,A,,
1.814797,'250',,
1.815057,Q,,
1.815317,'160',,
1.815577,'0',,
1.815837,\n,,
1.816097,'0',,
1.816357,'1',,
1.816617,'0',,
1.816877,\n,,
1.817137,'248',,
1.817397,'31',,
1.817657,H,,
1.817917,'31',,
1.818177,'252',,
1.818437,'0',,
1.818697,'0',,
1.818957,'0',,
1.819217,'0',,
1.819477,'169',,
1.819737,'154',,
1.819997,'169',,
1.820257,'155',,
1.820517,'225',,
1.820777,'142',,
1.821037,'176',,
1.821297,'139',,
1.821557,'19',,
1.821817,'140',,
1.822078,'4',,
1.822338,'8',,
1.931799,L,,
1.932059,C,,
1.932319,S,,
1.932579,A,,
1.932839,'250',,
1.933099,Q,,
1.933359,'160',,
1.933619,'0',,
1.933879,\n,,
1.934139,'0',,
1.934399,'1',,
1.934659,'0',,
1.934919,\n,,
1.935179,'248',,
1.935439,'31',,
1.935699,H,,
1.935959,'31',,
1.936219,'254',,
1.936479,'0',,
1.936739,'0',,
1.936999,'0',,
1.937259,'0',,
1.937519,'169',,
1.937779,'154',,
1.938039,'169',,
1.938299,'155',,
1.938559,'225',,
1.938819,'142',,
1.939079,'176',,
1.939339,'139',,
1.939599,'19',,
1.939859,'140',,
1.940119,'4',,
1.940379,'8',,
1.940766,L,,
1.941026,C,,
1.941286,S,,
1.941546,A,,
1.941806,'250',,
1.942066,Q,,
1.942326,'160',,
1.942586,'0',,
1.942846,\n,,
1.943106,'0',,
1.943367,'1',,
1.943627,'0',,
1.943887,\n,,
1.944147,'248',,
1.944407,'31',,
1.944667,H,,
1.944927,'31',,
1.945187,'254',,
1.945447,'0',,
1.945707,'0',,
1.945967,'0',,
1.946227,'0',,
1.946487,'169',,
1.946747,'154',,
1.947007,'169',,
1.947267,'155',,
1.947527,'225',,
1.947787,'142',,
1.948047,'176',,
1.948307,'139',,
1.948567,'19',,
1.948827,'140',,
1.949087,'4',,
1.949347,'8',,
1.951679,L,,
1.951939,C,,
1.952199,S,,
1.952459,A,,
1.952719,'250',,
1.952979,Q,,
1.953239,'160',,
1.953499,'0',,
1.953759,\n,,
1.954019,'0',,
1.954279,'1',,
1.954539,'0',,
1.9548,\n,,
1.95506,'248',,
1.95532,'31',,
1.95558,H,,
1.95584,'31',,
1.9561,'255',,
1.95636,'0',,
1.95662,'0',,
1.95688,'0',,
1.95714,'0',,
1.9574,'169',,
1.95766,'154',,
1.95792,'169',,
1.95818,'155',,
1.95844,'225',,
1.9587,'142',,
1.95896,'176',,
1.95922,'139',,
1.95948,'19',,
1.95974,'140',,
1.96,'4',,
1.96026,'8',,
1.971683,L,,
1.971943,C,,
1.972203,S,,
1.972463,A,,
1.972723,'250',,
1.972983,Q,,
1.973243,'160',,
1.973503,'0',,
1.973764,\n,,
1.974024,'0',,
1.974284,'1',,
1.974544,'0',,
1.974804,\n,,
1.975064,'248',,
1.975324,'31',,
1.975584,H,,
1.975844,'31',,
1.976104,'255',,
1.976364,'16',,
1.976624,'0',,
1.976884,'0',,
1.977144,'0',,
1.977404,'169',,
1.977664,'154',,
1.977924,'169',,
1.978184,'155',,
1.978444,'225',,
1.978704,'142',,
1.978964,'176',,
1.979224,'139',,
1.979484,'19',,
1.979744,'140',,
1.980004,'4',,
1.980264,'8',,
1.991687,L,,
1.991947,C,,
1.992207,S,,
1.992467,A,,
1.992727,'250',,
1.992988,Q,,
1.993248,'160',,
1.993508,'0',,
1.993768,\n,,
1.994028,'0',,
1.994288,'1',,
1.994548,'0',,
1.994808,\n,,
1.995068,'248',,
1.995328,'31',,
1.995588,H,,
1.995848,'31',,
1.996108,'255',,
1.996368,0,,
1.996628,'0',,
1.996888,'0',,
1.997148,'0',,
1.997408,'169',,
1.997668,'154',,
1.997928,'169',,
1.998188,'155',,
1.998448,'225',,
1.998708,'142',,
1.998968,'176',,
1.999228,'139',,
1.999488,'19',,
1.999748,'140',,
2.000008,'4',,
2.000268,'8',,
2.021701,L,,
2.021961,C,,
2.022221,S,,
2.022481,A,,
2.022741,'250',,
2.023001,Q,,
2.023261,'160',,
2.023521,'0',,
2.023781,\n,,
2.024041,'0',,
2.024301,'1',,
2.024561,'0',,
2.024821,\n,,
2.025081,'248',,
2.025341,'31',,
2.025601,H,,
2.025861,'31',,
2.026121,'255',,
2.026381,p,,
2.026641,'0',,
2.026901,'0',,
2.027161,'0',,
2.027421,'169',,
2.027681,'154',,
2.027942,'169',,
2.028202,'155',,
2.028462,'225',,
2.028722,'142',,
2.028982,'176',,
2.029242,'139',,
2.029502,'19',,
2.029762,'140',,
2.030022,'4',,
2.030282,'8',,
2.081864,L,,
2.082124,C,,
2.082384,S,,
2.082644,A,,
2.082904,'250',,
2.083164,Q,,
2.083424,'160',,
2.083685,'0',,
2.083945,\n,,
2.084205,'0',,
2.084465,'1',,
2.084725,'0',,
2.084985,\n,,
2.085245,'248',,
2.085505,'31',,
2.085765,H,,
2.086025,'31',,
2.086285,'255',,
2.086545,'240',,
2.086805,'0',,
2.087065,'0',,
2.087325,'0',,
2.087585,'169',,
2.087845,'154',,
2.088105,'169',,
2.088365,'155',,
2.088625,'225',,
2.088885,'142',,
2.089145,'176',,
2.089405,'139',,
2.089665,'19',,
2.089925,'140',,
2.090185,'4',,
2.090445,'8',,
2.231712,L,,
2.231972,C,,
2.232232,S,,
2.232492,A,,
2.232752,'250',,
2.233012,Q,,
2.233272,'160',,
2.233532,'0',,
2.233792,\n,,
2.234052,'0',,
2.234313,'1',,
2.234573,'0',,
2.234833,\n,,
2.235093,'248',,
2.235353,'31',,
2.235613,H,,
2.235873,'31',,
2.236133,'255',,
2.236393,'248',,
2.236653,'0',,
2.236913,'0',,
2.237173,'0',,
2.237433,'169',,
2.237693,'154',,
2.237953,'169',,
2.238213,'155',,
2.238473,'225',,
2.238733,'142',,
2.238993,'176',,
2.239253,'139',,
2.239513,'19',,
2.239773,'140',,
2.240033,'4',,
2.240293,'8',,
2.240966,L,,
2.241226,C,,
2.241486,S,,
2.241746,A,,
2.242006,'250',,
2.242266,Q,,
2.242526,'160',,
2.242786,'0',,
2.243046,\n,,
2.243306,'0',,
2.243566,'1',,
2.243826,'0',,
2.244086,\n,,
2.244346,'248',,
2.244606,'31',,
2.244866,H,,
2.245126,'31',,
2.245386,'255',,
2.245646,'248',,
2.245906,'0',,
2.246166,'0',,
2.246426,'0',,
2.246686,'169',,
2.246947,'154',,
2.247207,'169',,
2.247467,'155',,
2.247727,'225',,
2.247987,'142',,
2.248247,'176',,
2.248507,'139',,
2.248767,'19',,
2.249027,'140',,
2.249287,'4',,
2.249547,'8',,
2.361849,L,,
2.362109,C,,
2.362369,S,,
2.362629,A,,
2.362889,'250',,
2.363149,Q,,
2.363409,'160',,
2.363669,'0',,
2.363929,\n,,
2.364189,'0',,
2.364449,'1',,
2.364709,'0',,
2.364969,\n,,
2.365229,'248',,
2.365489,'31',,
2.365749,H,,
2.366009,'31',,
2.366269,'255',,
2.366529,'252',,
2.366789,'0',,
2.367049,'0',,
2.367309,'0',,
2.367569,'169',,
2.367829,'154',,
2.368089,'169',,
2.368349,'155',,
2.368609,'225',,
2.368869,'142',,
2.369129,'176',,
2.369389,'139',,
2.369649,'19',,
2.369909,'140',,
2.370169,'4',,
2.370429,'8',,
2.540826,L,,
2.541086,C,,
2.541346,S,,
2.541606,A,,
2.541866,'250',,
2.542126,Q,,
2.542386,'160',,
2.542646,'0',,
2.542906,\n,,
2.543166,'0',,
2.543426,'1',,
2.543686,'0',,
2.543946,\n,,
2.544206,'248',,
2.544466,'31',,
2.544726,H,,
2.544986,'31',,
2.545246,'255',,
2.545506,'252',,
2.545766,'0',,
2.546026,'0',,
2.546286,'0',,
2.546547,'169',,
2.546807,'154',,
2.547067,'169',,
2.547327,'155',,
2.547587,'225',,
2.547847,'142',,
2.548107,'176',,
2.548367,'139',,
2.548627,'19',,
2.548887,'140',,
2.549147,'4',,
2.549407,'8',,
2.673675,L,,
2.673935,C,,
2.674195,S,,
2.674455,A,,
2.674715,'250',,
2.674975,Q,,
2.675235,'160',,
2.675495,'0',,
2.675755,\n,,
2.676015,'0',,
2.676275,'1',,
2.676535,H,,
2.676795,'30',,
2.677055,'216',,
2.677315,'23',,
2.677575,'232',,
2.677835,'31',,
2.678095,'255',,
2.678355,'252',,
2.678615,'0',,
2.678875,'0',,
2.679135,'0',,
2.679395,'224',,
2.679655,'12',,
2.679915,'160',,
2.680175,'129',,
2.680435,'160',,
2.680695,'0',,
2.680955,'176',,
2.681215,'139',,
2.681475,'19',,
2.681736,'140',,
2.681996,'4',,
2.682256,'8',,
2.691774,L,,
2.692034,C,,
2.692294,S,,
2.692554,A,,
2.692814,'250',,
2.693074,Q,,
2.693334,'160',,
2.693594,'0',,
2.693854,\n,,
2.694114,'0',,
2.694374,'1',,
2.694634,H,,
2.694894,'30',,
2.695154,'216',,
2.695415,'23',,
2.695675,'232',,
2.695935,'31',,
2.696195,'255',,
2.696455,'248',,
2.696715,'0',,
2.696975,'0',,
2.697235,'0',,
2.697495,'224',,
2.697755,'12',,
2.698015,'160',,
2.698275,'129',,
2.698535,'160',,
2.698795,'0',,
2.699055,'176',,
2.699315,'139',,
2.699575,'19',,
2.699835,'140',,
2.700095,'4',,
2.700355,'8',,
2.72181,L,,
2.72207,C,,
2.72233,S,,
2.72259,A,,
2.72285,'250',,
2.72311,Q,,
2.72337,'160',,
2.723631,'0',,
2.723891,\n,,
2.724151,'0',,
2.724411,'1',,
2.724671,H,,
2.724931,'30',,
2.725191,'216',,
2.725451,'23',,
2.725711,'232',,
2.725971,'31',,
2.726231,'255',,
2.726491,'252',,
2.726751,'0',,
2.727011,'0',,
2.727271,'0',,
2.727531,'224',,
2.727791,'12',,
2.728051,'160',,
2.728311,'129',,
2.728571,'160',,
2.728831,'0',,
2.729091,'176',,
2.729351,'139',,
2.729611,'19',,
2.729871,'140',,
2.730131,'4',,
2.730391,'8',,
2.841026,L,,
2.841286,C,,
2.841546,S,,
2.841806,A,,
2.842066,'250',,
2.842326,Q,,
2.842586,'160',,
2.842846,'0',,
2.843106,\n,,
2.843366,'0',,
2.843626,'1',,
2.843886,H,,
2.844146,'30',,
2.844406,'216',,
2.844666,'23',,
2.844926,'232',,
2.845186,'31',,
2.845446,'255',,
2.845706,'252',,
2.845966,'0',,
2.846226,'0',,
2.846486,'0',,
2.846746,'224',,
2.847006,'12',,
2.847266,'160',,
2.847526,'129',,
2.847786,'160',,
2.848046,'0',,
2.848306,'176',,
2.848566,'139',,
2.848826,'19',,
2.849086,'140',,
2.849346,'4',,
2.849606,'8',,
3.140884,L,,
3.141144,C,,
3.141404,S,,
3.141664,A,,
3.141924,'250',,
3.142184,Q,,
3.142444,'160',,
3.142704,'0',,
3.142964,\n,,
3.143224,'0',,
3.143484,'1',,
3.143744,H,,
3.144004,'30',,
3.144264,'216',,
3.144524,'23',,
3.144784,'232',,
3.145044,'31',,
3.145304,'255',,
3.145565,'252',,
3.145825,'0',,
3.146085,'0',,
3.146345,'0',,
3.146605,'224',,
3.146865,'12',,
3.147125,'160',,
3.147385,'129',,
3.147645,'160',,
3.147905,'0',,
3.148165,'176',,
3.148425,'139',,
3.148685,'19',,
3.148945,'140',,
3.149205,'4',,
3.149465,'8',,
3.441084,L,,
3.441344,C,,
3.441604,S,,
3.441864,A,,
3.442124,'250',,
3.442384,Q,,
3.442644,'160',,
3.442904,'0',,
3.443164,\n,,
3.443424,'0',,
3.443684,'1',,
3.443944,H,,
3.444204,'30',,
3.444464,'216',,
3.444724,'23',,
3.444984,'232',,
3.445244,'31',,
3.445504,'255',,
3.445764,'252',,
3.446024,'0',,
3.446284,'0',,
3.446544,'0',,
3.446804,'224',,
3.447064,'12',,
3.447324,'160',,
3.447584,'129',,
3.447844,'160',,
3.448104,'0',,
3.448364,'176',,
3.448624,'139',,
3.448885,'19',,
3.449145,'140',,
3.449405,'4',,
3.449665,'8',,
3.453877,L,,
3.454137,C,,
3.454397,S,,
3.454657,A,,
3.454917,'250',,
3.455177,Q,,
3.455437,'160',,
3.455697,'0',,
3.455957,\n,,
3.456217,'0',,
3.456477,'1',,
3.456737,'200',,
3.456997,'22',,
3.457257,X,,
3.457517,'31',,
3.457777,'200',,
3.458037,'23',,
3.458297,'255',,
3.458557,'252',,
3.458817,'0',,
3.459078,'0',,
3.459338,'0',,
3.459598,'169',,
3.459858,'154',,
3.460118,'169',,
3.460378,'155',,
3.460638,'225',,
3.460898,'132',,
3.461158,'176',,
3.461418,'139',,
3.461678,'19',,
3.461938,'140',,
3.462198,'4',,
3.462458,'8',,
3.481973,L,,
3.482233,C,,
3.482493,S,,
3.482753,A,,
3.483013,'250',,
3.483273,Q,,
3.483533,'160',,
3.483793,'0',,
3.484053,\n,,
3.484313,'0',,
3.484573,'1',,
3.484833,'200',,
3.485093,'22',,
3.485353,X,,
3.485613,'31',,
3.485873,'200',,
3.486133,'23',,
3.486393,'255',,
3.486653,'254',,
3.486913,'0',,
3.487173,'0',,
3.487433,'0',,
3.487693,'169',,
3.487953,'154',,
3.488213,'169',,
3.488473,'155',,
3.488733,'225',,
3.488993,'132',,
3.489253,'176',,
3.489514,'139',,
3.489774,'19',,
3.490034,'140',,
3.490294,'4',,
3.490554,'8',,
3.511973,L,,
3.512233,C,,
3.512493,S,,
3.512753,A,,
3.513013,'250',,
3.513273,Q,,
3.513533,'160',,
3.513793,'0',,
3.514053,\n,,
3.514313,'0',,
3.514574,'1',,
3.514834,'200',,
3.515094,'22',,
3.515354,X,,
3.515614,'31',,
3.515874,'200',,
3.516134,'23',,
3.516394,'255',,
3.516654,'255',,
3.516914,'0',,
3.517174,'0',,
3.517434,'0',,
3.517694,'169',,
3.517954,'154',,
3.518214,'169',,
3.518474,'155',,
3.518734,'225',,
3.518994,'132',,
3.519254,'176',,
3.519514,'139',,
3.519774,'19',,
3.520034,'140',,
3.520294,'4',,
3.520554,'8',,
3.531979,L,,
3.532239,C,,
3.532499,S,,
3.532759,A,,
3.533019,'250',,
3.533279,Q,,
3.533539,'160',,
3.533799,'0',,
3.534059,\n,,
3.534319,'0',,
3.534579,'1',,
3.534839,'200',,
3.535099,'22',,
3.535359,X,,
3.535619,'31',,
3.535879,'200',,
3.536139,'23',,
3.536399,'255',,
3.536659,'255',,
3.536919,'16',,
3.537179,'0',,
3.53744,'0',,
3.5377,'169',,
3.53796,'154',,
3.53822,'169',,
3.53848,'155',,
3.53874,'225',,
3.539,'132',,
3.53926,'176',,
3.53952,'139',,
3.53978,'19',,
3.54004,'140',,
3.5403,'4',,
3.54056,'8',,
3.691994,L,,
3.692254,C,,
3.692514,S,,
3.692774,A,,
3.693034,'250',,
3.693294,Q,,
3.693554,'160',,
3.693814,'0',,
3.694074,\n,,
3.694334,'0',,
3.694594,'1',,
3.694854,'200',,
3.695114,'22',,
3.695374,X,,
3.695634,'31',,
3.695894,'200',,
3.696154,'23',,
3.696414,'255',,
3.696674,'255',,
3.696934,0,,
3.697194,'0',,
3.697454,'0',,
3.697714,'169',,
3.697975,'154',,
3.698235,'169',,
3.698495,'155',,
3.698755,'225',,
3.699015,'132',,
3.699275,'176',,
3.699535,'139',,
3.699795,'19',,
3.700055,'140',,
3.700315,'4',,
3.700575,'8',,
3.740945,L,,
3.741205,C,,
3.741465,S,,
3.741725,A,,
3.741985,'250',,
3.742246,Q,,
3.742506,'160',,
3.742766,'0',,
3.743026,\n,,
3.743286,'0',,
3.743546,'1',,
3.743806,'200',,
3.744066,'22',,
3.744326,X,,
3.744586,'31',,
3.744846,'200',,
3.745106,'23',,
3.745366,'255',,
3.745626,'255',,
3.745886,0,,
3.746146,'0',,
3.746406,'0',,
3.746666,'169',,
3.746926,'154',,
3.747186,'169',,
3.747446,'155',,
3.747706,'225',,
3.747966,'132',,
3.748226,'176',,
3.748486,'139',,
3.748746,'19',,
3.749006,'140',,
3.749266,'4',,
3.749526,'8',,
4.041145,L,,
4.041405,C,,
4.041665,S,,
4.041925,A,,
4.042185,'250',,
4.042445,Q,,
4.042705,'160',,
4.042965,'0',,
4.043225,\n,,
4.043485,'0',,
4.043745,'1',,
4.044005,'200',,
4.044265,'22',,
4.044525,X,,
4.044785,'31',,
4.045045,'200',,
4.045305,'23',,
4.045566,'255',,
4.045826,'255',,
4.046086,0,,
4.046346,'0',,
4.046606,'0',,
4.046866,'169',,
4.047126,'154',,
4.047386,'169',,
4.047646,'155',,
4.047906,'225',,
4.048166,'132',,
4.048426,'176',,
4.048686,'139',,
4.048946,'19',,
4.049206,'140',,
4.049466,'4',,
4.049726,'8',,
4.193951,L,,
4.194211,C,,
4.194471,S,,
4.194731,A,,
4.194991,'250',,
4.195251,Q,,
4.195511,'160',,
4.195771,'0',,
4.196031,\n,,
4.196291,'0',,
4.196551,'1',,
4.196811,'8',,
4.197071,\n,,
4.197331,'185',,
4.197591,'155',,
4.197851,'8',,
4.198111,'11',,
4.198371,'255',,
4.198631,'255',,
4.198891,0,,
4.199151,'0',,
4.199411,'0',,
4.199671,'169',,
4.199931,'154',,
4.200191,'169',,
4.200451,'155',,
4.200711,a,,
4.200971,'142',,
4.201232,'176',,
4.201492,'139',,
4.201752,'19',,
4.202012,'140',,
4.202272,'4',,
4.202532,'8',,
4.31204,L,,
4.3123,C,,
4.31256,S,,
4.31282,A,,
4.31308,'250',,
4.31334,Q,,
4.3136,'160',,
4.31386,'0',,
4.31412,\n,,
4.31438,'0',,
4.31464,'1',,
4.3149,'8',,
4.31516,\n,,
4.31542,'185',,
4.31568,'155',,
4.31594,'8',,
4.3162,'11',,
4.31646,'255',,
4.31672,'255',,
4.31698,'16',,
4.31724,'0',,
4.3175,'0',,
4.31776,'169',,
4.31802,'154',,
4.31828,'169',,
4.31854,'155',,
4.318801,a,,
4.319061,'142',,
4.319321,'176',,
4.319581,'139',,
4.319841,'19',,
4.320101,'140',,
4.320361,'4',,
4.320621,'8',,
4.341003,L,,
4.341263,C,,
4.341524,S,,
4.341784,A,,
4.342044,'250',,
4.342304,Q,,
4.342564,'160',,
4.342824,'0',,
4.343084,\n,,
4.343344,'0',,
4.343604,'1',,
4.343864,'8',,
4.344124,\n,,
4.344384,'185',,
4.344644,'155',,
4.344904,'8',,
4.345164,'11',,
4.345424,'255',,
4.345684,'255',,
4.345944,'16',,
4.346204,'0',,
4.346464,'0',,
4.346724,'169',,
4.346984,'154',,
4.347244,'169',,
4.347504,'155',,
4.347764,a,,
4.348024,'142',,
4.348284,'176',,
4.348544,'139',,
