Time [s],Value,Parity Error,Framing Error
1.593037,S,,
1.593296,W,,
1.593555,D,,
1.593814,V,,
1.594073,5,,
1.594332,3,,
1.59459,4,,
1.594849,B,,
1.595108,1,,
1.595367,E,,
1.595626,0,,
1.595885,0,,
1.596144,0,,
1.596403,1,,
1.596662,0,,
1.596921,0,,
1.597179,\r,,
1.597438,\n,,
1.612953,S,,
1.613212,W,,
1.613471,D,,
1.61373,V,,
1.613989,5,,
1.614247,3,,
1.614506,4,,
1.614765,B,,
1.615024,1,,
1.615283,F,,
1.615542,0,,
1.615801,0,,
1.61606,0,,
1.616319,1,,
1.616578,0,,
1.616836,0,,
1.617095,\r,,
1.617354,\n,,
1.802136,S,,
1.802395,W,,
1.802654,D,,
1.802913,S,,
1.803172,4,,
1.80343,0,,
1.803689,0,,
1.803948,0,,
1.804207,0,,
1.804466,0,,
1.804725,0,,
1.804984,0,,
1.805243,0,,
1.805502,1,,
1.805761,0,,
1.80602,0,,
1.806278,\r,,
1.806537,\n,,
2.070994,S,,
2.071253,W,,
2.071512,D,,
2.071771,S,,
2.07203,0,,
2.072288,0,,
2.072547,0,,
2.072806,0,,
2.073065,0,,
2.073324,0,,
2.073583,0,,
2.073842,0,,
2.074101,0,,
2.07436,1,,
2.074619,0,,
2.074877,0,,
2.075136,\r,,
2.075395,\n,,
2.658499,S,,
2.658758,W,,
2.659017,D,,
2.659276,S,,
2.659535,2,,
2.659793,0,,
2.660052,0,,
2.660311,0,,
2.66057,0,,
2.660829,0,,
2.661088,0,,
2.661347,0,,
2.661606,0,,
2.661865,1,,
2.662124,0,,
2.662382,0,,
2.662641,\r,,
2.6629,\n,,
2.917397,S,,
2.917656,W,,
2.917915,D,,
2.918174,S,,
2.918432,0,,
2.918691,0,,
2.91895,0,,
2.919209,0,,
2.919468,0,,
2.919727,0,,
2.919986,0,,
2.920245,0,,
2.920504,0,,
2.920763,1,,
2.921021,0,,
2.92128,0,,
2.921539,\r,,
2.921798,\n,,
3.44518,S,,
3.445439,W,,
3.445697,D,,
3.445956,S,,
3.446215,1,,
3.446474,0,,
3.446733,0,,
3.446992,0,,
3.447251,0,,
3.44751,0,,
3.447769,0,,
3.448027,0,,
3.448286,0,,
3.448545,1,,
3.448804,0,,
3.449063,0,,
3.449322,\r,,
3.449581,\n,,
3.664221,S,,
3.66448,W,,
3.664739,D,,
3.664998,S,,
3.665257,0,,
3.665516,0,,
3.665775,0,,
3.666034,0,,
3.666293,0,,
3.666551,0,,
3.66681,0,,
3.667069,0,,
3.667328,0,,
3.667587,1,,
3.667846,0,,
3.668105,0,,
3.668364,\r,,
3.668623,\n,,
4.182022,S,,
4.182281,W,,
4.18254,D,,
4.182799,S,,
4.183058,0,,
4.183317,8,,
4.183576,0,,
4.183834,0,,
4.184093,0,,
4.184352,0,,
4.184611,0,,
4.18487,0,,
4.185129,0,,
4.185388,1,,
4.185647,0,,
4.185906,0,,
4.186165,\r,,
4.186423,\n,,
4.44092,S,,
4.441178,W,,
4.441437,D,,
4.441696,S,,
4.441955,0,,
4.442214,0,,
4.442473,0,,
4.442732,0,,
4.442991,0,,
4.44325,0,,
4.443508,0,,
4.443767,0,,
4.444026,0,,
4.444285,1,,
4.444544,0,,
4.444803,0,,
4.445062,\r,,
4.445321,\n,,
4.620171,S,,
4.62043,W,,
4.620688,D,,
4.620947,V,,
4.621206,5,,
4.621465,3,,
4.621724,4,,
4.621983,A,,
4.622242,1,,
4.622501,F,,
4.62276,0,,
4.623019,0,,
4.623277,0,,
4.623536,1,,
4.623795,0,,
4.624054,0,,
4.624313,\r,,
4.624572,\n,,
4.63013,S,,
4.630389,W,,
4.630648,D,,
4.630907,V,,
4.631166,5,,
4.631425,3,,
4.631683,4,,
4.631942,B,,
4.632201,1,,
4.63246,F,,
4.632719,0,,
4.632978,0,,
4.633237,0,,
4.633496,1,,
4.633755,0,,
4.634014,0,,
4.634272,\r,,
4.634531,\n,,
5.118037,S,,
5.118296,W,,
5.118555,D,,
5.118814,S,,
5.119073,0,,
5.119332,4,,
5.119591,0,,
5.119849,0,,
5.120108,0,,
5.120367,0,,
5.120626,0,,
5.120885,0,,
5.121144,0,,
5.121403,1,,
5.121662,0,,
5.121921,0,,
5.122179,\r,,
5.122438,\n,,
5.297274,S,,
5.297533,W,,
5.297792,D,,
5.298051,S,,
5.29831,0,,
5.298569,0,,
5.298827,0,,
5.299086,0,,
5.299345,0,,
5.299604,0,,
5.299863,0,,
5.300122,0,,
5.300381,0,,
5.30064,1,,
5.300899,0,,
5.301158,0,,
5.301417,\r,,
5.301675,\n,,
5.805121,S,,
5.80538,W,,
5.805639,D,,
5.805898,S,,
5.806157,0,,
5.806416,2,,
5.806674,0,,
5.806933,0,,
5.807192,0,,
5.807451,0,,
5.80771,0,,
5.807969,0,,
5.808228,0,,
5.808487,1,,
5.808746,0,,
5.809004,0,,
5.809263,\r,,
5.809522,\n,,
5.964443,S,,
5.964702,W,,
5.964961,D,,
5.96522,S,,
5.965479,0,,
5.965738,0,,
5.965996,0,,
5.966255,0,,
5.966514,0,,
5.966773,0,,
5.967032,0,,
5.967291,0,,
5.96755,0,,
5.967809,1,,
5.968068,0,,
5.968327,0,,
5.968585,\r,,
5.968844,\n,,
6.482239,S,,
6.482498,W,,
6.482757,D,,
6.483016,S,,
6.483275,0,,
6.483533,1,,
6.483792,0,,
6.484051,0,,
6.48431,0,,
6.484569,0,,
6.484828,0,,
6.485087,0,,
6.485346,0,,
6.485605,1,,
6.485864,0,,
6.486122,0,,
6.486381,\r,,
6.48664,\n,,
6.661474,S,,
6.661733,W,,
6.661991,D,,
6.66225,S,,
6.662509,0,,
6.662768,0,,
6.663027,0,,
6.663286,0,,
6.663545,0,,
6.663804,0,,
6.664063,0,,
6.664322,0,,
6.66458,0,,
6.664839,1,,
6.665098,0,,
6.665357,0,,
6.665616,\r,,
6.665875,\n,,
7.119539,S,,
7.119798,W,,
7.120057,D,,
7.120316,V,,
7.120575,5,,
7.120833,3,,
7.121092,4,,
7.121351,B,,
7.12161,1,,
7.121869,E,,
7.122128,0,,
7.122387,0,,
7.122646,0,,
7.122905,1,,
7.123164,0,,
7.123423,0,,
7.123681,\r,,
7.12394,\n,,
7.129497,S,,
7.129756,W,,
7.130015,D,,
7.130274,V,,
7.130533,5,,
7.130791,3,,
7.13105,4,,
7.131309,B,,
7.131568,1,,
7.131827,F,,
7.132086,0,,
7.132345,0,,
7.132604,0,,
7.132863,1,,
7.133122,0,,
7.13338,0,,
7.133639,\r,,
7.133898,\n,,
7.179275,S,,
7.179534,W,,
7.179793,D,,
7.180052,S,,
7.180311,0,,
7.18057,0,,
7.180829,8,,
7.181088,0,,
7.181346,0,,
7.181605,0,,
7.181864,0,,
7.182123,0,,
7.182382,0,,
7.182641,1,,
7.1829,0,,
7.183159,0,,
7.183418,\r,,
7.183677,\n,,
7.328641,S,,
7.3289,W,,
7.329159,D,,
7.329418,S,,
7.329677,0,,
7.329936,0,,
7.330194,0,,
7.330453,0,,
7.330712,0,,
7.330971,0,,
7.33123,0,,
7.331489,0,,
7.331748,0,,
7.332007,1,,
7.332266,0,,
7.332525,0,,
7.332783,\r,,
7.333042,\n,,
7.657258,S,,
7.657517,W,,
7.657776,D,,
7.658035,V,,
7.658294,5,,
7.658553,2,,
7.658811,4,,
7.65907,B,,
7.659329,1,,
7.659588,F,,
7.659847,0,,
7.660106,0,,
7.660365,0,,
7.660624,1,,
7.660883,0,,
7.661142,0,,
7.6614,\r,,
7.661659,\n,,
7.677182,S,,
7.677441,W,,
7.6777,D,,
7.677959,V,,
7.678218,5,,
7.678477,3,,
7.678735,4,,
7.678994,B,,
7.679253,1,,
7.679512,F,,
7.679771,0,,
7.68003,0,,
7.680289,0,,
7.680548,1,,
7.680807,0,,
7.681066,0,,
7.681324,\r,,
7.681583,\n,,
7.836483,S,,
7.836742,W,,
7.837001,D,,
7.83726,S,,
7.837519,0,,
7.837777,0,,
7.838036,4,,
7.838295,0,,
7.838554,0,,
7.838813,0,,
7.839072,0,,
7.839331,0,,
7.83959,0,,
7.839849,1,,
7.840108,0,,
7.840366,0,,
7.840625,\r,,
7.840884,\n,,
7.985847,S,,
7.986106,W,,
7.986365,D,,
7.986624,S,,
7.986883,0,,
7.987142,0,,
7.987401,0,,
7.987659,0,,
7.987918,0,,
7.988177,0,,
7.988436,0,,
7.988695,0,,
7.988954,0,,
7.989213,1,,
7.989472,0,,
7.989731,0,,
7.98999,\r,,
7.990248,\n,,
8.384168,S,,
8.384427,W,,
8.384686,D,,
8.384945,V,,
8.385204,5,,
8.385463,4,,
8.385722,4,,
8.385981,B,,
8.38624,1,,
8.386498,F,,
8.386757,0,,
8.387016,0,,
8.387275,0,,
8.387534,1,,
8.387793,0,,
8.388052,0,,
8.388311,\r,,
8.38857,\n,,
8.394126,S,,
8.394385,W,,
8.394644,D,,
8.394903,V,,
8.395162,5,,
8.395421,2,,
8.39568,4,,
8.395939,B,,
8.396197,1,,
8.396456,F,,
8.396715,0,,
8.396974,0,,
8.397233,0,,
8.397492,1,,
8.397751,0,,
8.39801,0,,
8.398269,\r,,
8.398528,\n,,
8.404084,S,,
8.404343,W,,
8.404602,D,,
8.404861,V,,
8.40512,5,,
8.405379,3,,
8.405638,4,,
8.405897,B,,
8.406155,1,,
8.406414,F,,
8.406673,0,,
8.406932,0,,
8.407191,0,,
8.40745,1,,
8.407709,0,,
8.407968,0,,
8.408227,\r,,
8.408486,\n,,
8.533523,S,,
8.533782,W,,
8.534041,D,,
8.534299,S,,
8.534558,8,,
8.534817,0,,
8.535076,0,,
8.535335,0,,
8.535594,0,,
8.535853,0,,
8.536112,0,,
8.536371,0,,
8.53663,0,,
8.536888,1,,
8.537147,0,,
8.537406,0,,
8.537665,\r,,
8.537924,\n,,
8.73268,S,,
8.732939,W,,
8.733198,D,,
8.733457,S,,
8.733716,0,,
8.733975,0,,
8.734234,0,,
8.734493,0,,
8.734751,0,,
8.73501,0,,
8.735269,0,,
8.735528,0,,
8.735787,0,,
8.736046,1,,
8.736305,0,,
8.736564,0,,
8.736823,\r,,
8.737082,\n,,
9.519346,S,,
9.519605,W,,
9.519863,D,,
9.520122,V,,
9.520381,5,,
9.52064,3,,
9.520899,4,,
9.521158,B,,
9.521417,1,,
9.521676,E,,
9.521935,0,,
9.522193,0,,
9.522452,0,,
9.522711,1,,
9.52297,0,,
9.523229,0,,
9.523488,\r,,
9.523747,\n,,
9.53926,S,,
9.539519,W,,
9.539778,D,,
9.540037,V,,
9.540295,5,,
9.540554,3,,
9.540813,4,,
9.541072,B,,
9.541331,1,,
9.54159,F,,
9.541849,0,,
9.542108,0,,
9.542367,0,,
9.542626,1,,
9.542884,0,,
9.543143,0,,
9.543402,\r,,
9.543661,\n,,
10.325905,S,,
10.326164,W,,
10.326423,D,,
10.326682,S,,
10.326941,4,,
10.3272,0,,
10.327459,0,,
10.327718,0,,
10.327977,0,,
10.328236,0,,
10.328494,0,,
10.328753,0,,
10.329012,0,,
10.329271,1,,
10.32953,0,,
10.329789,0,,
10.330048,\r,,
10.330307,\n,,
10.485279,S,,
10.485538,W,,
10.485797,D,,
10.486056,S,,
10.486315,0,,
10.486574,0,,
10.486833,0,,
10.487092,0,,
10.487351,0,,
10.487609,0,,
10.487868,0,,
10.488127,0,,
10.488386,0,,
10.488645,1,,
10.488904,0,,
10.489163,0,,
10.489422,\r,,
10.489681,\n,,
10.943289,S,,
10.943548,W,,
10.943807,D,,
10.944066,S,,
10.944325,2,,
10.944584,0,,
10.944843,0,,
10.945102,0,,
10.945361,0,,
10.94562,0,,
10.945879,0,,
10.946137,0,,
10.946396,0,,
10.946655,1,,
10.946914,0,,
10.947173,0,,
10.947432,\r,,
10.947691,\n,,
11.112561,S,,
11.11282,W,,
11.113079,D,,
11.113338,S,,
11.113597,0,,
11.113856,0,,
11.114115,0,,
11.114374,0,,
11.114632,0,,
11.114891,0,,
11.11515,0,,
11.115409,0,,
11.115668,0,,
11.115927,1,,
11.116186,0,,
11.116445,0,,
11.116704,\r,,
11.116963,\n,,
11.480997,S,,
11.481256,W,,
11.481514,D,,
11.481773,S,,
11.482032,1,,
11.482291,0,,
11.48255,0,,
11.482809,0,,
11.483068,0,,
11.483327,0,,
11.483586,0,,
11.483844,0,,
11.484103,0,,
11.484362,1,,
11.484621,0,,
11.48488,0,,
11.485139,\r,,
11.485398,\n,,
11.620409,S,,
11.620668,W,,
11.620927,D,,
11.621186,S,,
11.621445,0,,
11.621704,0,,
11.621963,0,,
11.622222,0,,
11.62248,0,,
11.622739,0,,
11.622998,0,,
11.623257,0,,
11.623516,0,,
11.623775,1,,
11.624034,0,,
11.624293,0,,
11.624552,\r,,
11.624811,\n,,
12.008754,S,,
12.009013,W,,
12.009272,D,,
12.009531,S,,
12.00979,0,,
12.010049,8,,
12.010307,0,,
12.010566,0,,
12.010825,0,,
12.011084,0,,
12.011343,0,,
12.011602,0,,
12.011861,0,,
12.01212,1,,
12.012379,0,,
12.012638,0,,
12.012896,\r,,
12.013155,\n,,
12.18799,S,,
12.188249,W,,
12.188508,D,,
12.188767,S,,
12.189026,0,,
12.189285,0,,
12.189544,0,,
12.189803,0,,
12.190062,0,,
12.190321,0,,
12.190579,0,,
12.190838,0,,
12.191097,0,,
12.191356,1,,
12.191615,0,,
12.191874,0,,
12.192133,\r,,
12.192392,\n,,
12.596257,S,,
12.596516,W,,
12.596775,D,,
12.597034,S,,
12.597293,0,,
12.597552,4,,
12.597811,0,,
12.59807,0,,
12.598329,0,,
12.598588,0,,
12.598846,0,,
12.599105,0,,
12.599364,0,,
12.599623,1,,
12.599882,0,,
12.600141,0,,
12.6004,\r,,
12.600659,\n,,
12.785452,S,,
12.785711,W,,
12.78597,D,,
12.786228,S,,
12.786487,0,,
12.786746,0,,
12.787005,0,,
12.787264,0,,
12.787523,0,,
12.787782,0,,
12.788041,0,,
12.7883,0,,
12.788559,0,,
12.788817,1,,
12.789076,0,,
12.789335,0,,
12.789594,\r,,
12.789853,\n,,
13.074227,S,,
13.074486,W,,
13.074745,D,,
13.075004,S,,
13.075262,0,,
13.075521,2,,
13.07578,0,,
13.076039,0,,
13.076298,0,,
13.076557,0,,
13.076816,0,,
13.077075,0,,
13.077334,0,,
13.077593,1,,
13.077851,0,,
13.07811,0,,
13.078369,\r,,
13.078628,\n,,
13.223589,S,,
13.223848,W,,
13.224107,D,,
13.224366,S,,
13.224625,0,,
13.224884,0,,
13.225143,0,,
13.225402,0,,
13.225661,0,,
13.22592,0,,
13.226178,0,,
13.226437,0,,
13.226696,0,,
13.226955,1,,
13.227214,0,,
13.227473,0,,
13.227732,\r,,
13.227991,\n,,
13.601983,S,,
13.602242,W,,
13.602501,D,,
13.602759,S,,
13.603018,0,,
13.603277,1,,
13.603536,0,,
13.603795,0,,
13.604054,0,,
13.604313,0,,
13.604572,0,,
13.604831,0,,
13.60509,0,,
13.605348,1,,
13.605607,0,,
13.605866,0,,
13.606125,\r,,
13.606384,\n,,
13.781221,S,,
13.78148,W,,
13.781739,D,,
13.781997,S,,
13.782256,0,,
13.782515,0,,
13.782774,0,,
13.783033,0,,
13.783292,0,,
13.783551,0,,
13.78381,0,,
13.784069,0,,
13.784328,0,,
13.784586,1,,
13.784845,0,,
13.785104,0,,
13.785363,\r,,
13.785622,\n,,
14.069994,S,,
14.070253,W,,
14.070512,D,,
14.070771,S,,
14.07103,0,,
14.071289,0,,
14.071548,8,,
14.071807,0,,
14.072066,0,,
14.072325,0,,
14.072583,0,,
14.072842,0,,
14.073101,0,,
14.07336,1,,
14.073619,0,,
14.073878,0,,
14.074136,\r,,
14.074396,\n,,
14.239273,S,,
14.239532,W,,
14.239791,D,,
14.240049,S,,
14.240308,0,,
14.240567,0,,
14.240826,0,,
14.241085,0,,
14.241344,0,,
14.241603,0,,
14.241862,0,,
14.242121,0,,
14.24238,0,,
14.242638,1,,
14.242897,0,,
14.243156,0,,
14.243415,\r,,
14.243674,\n,,
14.607708,S,,
14.607967,W,,
14.608226,D,,
14.608485,S,,
14.608743,0,,
14.609002,0,,
14.609261,4,,
14.60952,0,,
14.609779,0,,
14.610038,0,,
14.610297,0,,
14.610556,0,,
14.610815,0,,
14.611074,1,,
14.611332,0,,
14.611591,0,,
14.61185,\r,,
14.612109,\n,,
14.76703,S,,
14.767289,W,,
14.767548,D,,
14.767806,S,,
14.768065,0,,
14.768324,0,,
14.768583,0,,
14.768842,0,,
14.769101,0,,
14.76936,0,,
14.769619,0,,
14.769878,0,,
14.770137,0,,
14.770395,1,,
14.770654,0,,
14.770913,0,,
14.771172,\r,,
14.771431,\n,,
15.145449,S,,
15.145707,W,,
15.145967,D,,
15.146226,S,,
15.146485,8,,
15.146744,0,,
15.147002,0,,
15.147261,0,,
15.14752,0,,
15.147779,0,,
15.148038,0,,
15.148297,0,,
15.148556,0,,
15.148815,1,,
15.149074,0,,
15.149333,0,,
15.149591,\r,,
15.14985,\n,,
15.344575,S,,
15.344834,W,,
15.345093,D,,
15.345352,S,,
15.345611,0,,
15.34587,0,,
15.346128,0,,
15.346387,0,,
15.346646,0,,
15.346905,0,,
15.347164,0,,
15.347423,0,,
15.347682,0,,
15.347941,1,,
15.3482,0,,
15.348459,0,,
15.348717,\r,,
15.348976,\n,,
16.081457,S,,
16.081715,W,,
16.081974,D,,
16.082233,V,,
16.082492,5,,
16.082751,3,,
16.08301,4,,
16.083269,B,,
16.083528,1,,
16.083787,E,,
16.084046,0,,
16.084304,0,,
16.084563,0,,
16.084822,1,,
16.085081,0,,
16.08534,0,,
16.085599,\r,,
16.085858,\n,,
16.091414,S,,
16.091673,W,,
16.091932,D,,
16.092191,V,,
16.09245,5,,
16.092709,3,,
16.092968,4,,
16.093227,B,,
16.093486,2,,
16.093745,0,,
16.094004,0,,
16.094262,0,,
16.094521,0,,
16.09478,1,,
16.095039,0,,
16.095298,0,,
16.095557,\r,,
16.095816,\n,,
16.101372,S,,
16.101631,W,,
16.10189,D,,
16.102149,V,,
16.102408,5,,
16.102667,3,,
16.102926,4,,
16.103185,B,,
16.103444,1,,
16.103703,F,,
16.103961,0,,
16.10422,0,,
16.104479,0,,
16.104738,1,,
16.104997,0,,
16.105256,0,,
16.105515,\r,,
16.105774,\n,,
17.246493,S,,
17.246751,W,,
17.24701,D,,
17.247269,S,,
17.247528,0,,
17.247787,0,,
17.248046,0,,
17.248305,0,,
17.248564,0,,
17.248823,0,,
17.249082,4,,
17.24934,0,,
17.249599,0,,
17.249858,1,,
17.250117,0,,
17.250376,0,,
17.250635,\r,,
17.250894,\n,,
17.405813,S,,
17.406072,W,,
17.406331,D,,
17.40659,S,,
17.406849,0,,
17.407107,0,,
17.407366,0,,
17.407625,0,,
17.407884,0,,
17.408143,0,,
17.408402,0,,
17.408661,0,,
17.40892,0,,
17.409179,1,,
17.409438,0,,
17.409696,0,,
17.409955,\r,,
17.410214,\n,,
17.485477,S,,
17.485735,W,,
17.485994,D,,
17.486253,S,,
17.486512,0,,
17.486771,0,,
17.48703,0,,
17.487289,0,,
17.487548,0,,
17.487807,0,,
17.488066,4,,
17.488324,0,,
17.488583,0,,
17.488842,1,,
17.489101,0,,
17.48936,0,,
17.489619,\r,,
17.489878,\n,,
17.614926,S,,
17.615185,W,,
17.615444,D,,
17.615703,S,,
17.615962,0,,
17.616221,0,,
17.61648,0,,
17.616739,0,,
17.616997,0,,
17.617256,0,,
17.617515,0,,
17.617774,0,,
17.618033,0,,
17.618292,1,,
17.618551,0,,
17.61881,0,,
17.619069,\r,,
17.619328,\n,,
17.714504,S,,
17.714763,W,,
17.715022,D,,
17.71528,S,,
17.715539,0,,
17.715798,0,,
17.716057,0,,
17.716316,0,,
17.716575,0,,
17.716834,0,,
17.717093,4,,
17.717352,0,,
17.717611,0,,
17.717869,1,,
17.718128,0,,
17.718387,0,,
17.718646,\r,,
17.718905,\n,,
17.814078,S,,
17.814337,W,,
17.814596,D,,
17.814855,S,,
17.815114,0,,
17.815373,0,,
17.815631,0,,
17.81589,0,,
17.816149,0,,
17.816408,0,,
17.816667,0,,
17.816926,0,,
17.817185,0,,
17.817444,1,,
17.817703,0,,
17.817961,0,,
17.81822,\r,,
17.818479,\n,,
17.893741,S,,
17.894,W,,
17.894259,D,,
17.894518,S,,
17.894777,0,,
17.895036,0,,
17.895295,0,,
17.895554,0,,
17.895813,0,,
17.896072,0,,
17.89633,4,,
17.896589,0,,
17.896848,0,,
17.897107,1,,
17.897366,0,,
17.897625,0,,
17.897884,\r,,
17.898143,\n,,
17.993317,S,,
17.993576,W,,
17.993835,D,,
17.994094,S,,
17.994353,0,,
17.994612,0,,
17.994871,0,,
17.99513,0,,
17.995389,0,,
17.995648,0,,
17.995906,0,,
17.996165,0,,
17.996424,0,,
17.996683,1,,
17.996942,0,,
17.997201,0,,
17.99746,\r,,
17.997719,\n,,
18.092895,S,,
18.093154,W,,
18.093413,D,,
18.093672,S,,
18.093931,0,,
18.094189,0,,
18.094448,0,,
18.094707,0,,
18.094966,0,,
18.095225,0,,
18.095484,4,,
18.095743,0,,
18.096002,0,,
18.096261,1,,
18.096519,0,,
18.096778,0,,
18.097037,\r,,
18.097296,\n,,
18.212385,S,,
18.212644,W,,
18.212903,D,,
18.213162,S,,
18.213421,0,,
18.21368,0,,
18.213939,0,,
18.214198,0,,
18.214456,0,,
18.214715,0,,
18.214974,0,,
18.215233,0,,
18.215492,0,,
18.215751,1,,
18.21601,0,,
18.216269,0,,
18.216528,\r,,
18.216787,\n,,
18.292047,S,,
18.292306,W,,
18.292565,D,,
18.292824,S,,
18.293083,0,,
18.293341,0,,
18.2936,0,,
18.293859,0,,
18.294118,0,,
18.294377,0,,
18.294636,4,,
18.294895,0,,
18.295154,0,,
18.295413,1,,
18.295672,0,,
18.29593,0,,
18.296189,\r,,
18.296448,\n,,
18.411539,S,,
18.411798,W,,
18.412056,D,,
18.412315,S,,
18.412574,0,,
18.412833,0,,
18.413092,0,,
18.413351,0,,
18.41361,0,,
18.413869,0,,
18.414128,0,,
18.414387,0,,
18.414645,0,,
18.414904,1,,
18.415163,0,,
18.415422,0,,
18.415681,\r,,
18.41594,\n,,
18.4912,S,,
18.491459,W,,
18.491718,D,,
18.491977,S,,
18.492236,0,,
18.492495,0,,
18.492754,0,,
18.493013,0,,
18.493272,0,,
18.49353,0,,
18.493789,4,,
18.494048,0,,
18.494307,0,,
18.494566,1,,
18.494825,0,,
18.495084,0,,
18.495343,\r,,
18.495602,\n,,
18.600736,S,,
18.600995,W,,
18.601254,D,,
18.601512,S,,
18.601771,0,,
18.60203,0,,
18.602289,0,,
18.602548,0,,
18.602807,0,,
18.603066,0,,
18.603325,0,,
18.603584,0,,
18.603843,0,,
18.604101,1,,
18.60436,0,,
18.604619,0,,
18.604878,\r,,
18.605137,\n,,
18.690354,S,,
18.690613,W,,
18.690872,D,,
18.691131,S,,
18.691389,0,,
18.691648,0,,
18.691907,0,,
18.692166,0,,
18.692425,0,,
18.692684,0,,
18.692943,4,,
18.693202,0,,
18.693461,0,,
18.69372,1,,
18.693978,0,,
18.694237,0,,
18.694496,\r,,
18.694755,\n,,
18.799888,S,,
18.800147,W,,
18.800406,D,,
18.800664,S,,
18.800923,0,,
18.801182,0,,
18.801441,0,,
18.8017,0,,
18.801959,0,,
18.802218,0,,
18.802477,0,,
18.802736,0,,
18.802994,0,,
18.803253,1,,
18.803512,0,,
18.803771,0,,
18.80403,\r,,
18.804289,\n,,
18.889507,S,,
18.889766,W,,
18.890025,D,,
18.890284,S,,
18.890543,0,,
18.890802,0,,
18.891061,0,,
18.89132,0,,
18.891579,0,,
18.891838,0,,
18.892096,4,,
18.892355,0,,
18.892614,0,,
18.892873,1,,
18.893132,0,,
18.893391,0,,
18.89365,\r,,
18.893909,\n,,
18.989083,S,,
18.989342,W,,
18.989601,D,,
18.98986,S,,
18.990119,0,,
18.990378,0,,
18.990637,0,,
18.990896,0,,
18.991155,0,,
18.991413,0,,
18.991672,0,,
18.991931,0,,
18.99219,0,,
18.992449,1,,
18.992708,0,,
18.992967,0,,
18.993226,\r,,
18.993485,\n,,
19.078705,S,,
19.078963,W,,
19.079222,D,,
19.079481,S,,
19.07974,0,,
19.079999,0,,
19.080258,0,,
19.080517,0,,
19.080776,0,,
19.081035,0,,
19.081294,4,,
19.081552,0,,
19.081811,0,,
19.08207,1,,
19.082329,0,,
19.082588,0,,
19.082847,\r,,
19.083106,\n,,
19.158363,S,,
19.158622,W,,
19.158881,D,,
19.15914,S,,
19.159399,0,,
19.159658,0,,
19.159917,0,,
19.160175,0,,
19.160434,0,,
19.160693,0,,
19.160952,0,,
19.161211,0,,
19.16147,0,,
19.161729,1,,
19.161988,0,,
19.162247,0,,
19.162506,\r,,
19.162764,\n,,
19.228069,S,,
19.228328,W,,
19.228586,D,,
19.228845,S,,
19.229104,0,,
19.229363,0,,
19.229622,0,,
19.229881,0,,
19.23014,0,,
19.230399,0,,
19.230658,4,,
19.230917,0,,
19.231175,0,,
19.231434,1,,
19.231693,0,,
19.231952,0,,
19.232211,\r,,
19.23247,\n,,
19.35757,S,,
19.357829,W,,
19.358088,D,,
19.358347,S,,
19.358606,0,,
19.358865,0,,
19.359124,0,,
19.359383,0,,
19.359641,0,,
19.359901,0,,
19.360159,0,,
19.360419,0,,
19.360677,0,,
19.360936,1,,
19.361195,0,,
19.361454,0,,
19.361713,\r,,
19.361972,\n,,
19.706049,S,,
19.706308,W,,
19.706567,D,,
19.706826,V,,
19.707085,5,,
19.707344,3,,
19.707602,4,,
19.707861,B,,
19.70812,1,,
19.708379,E,,
19.708638,0,,
19.708897,0,,
19.709156,0,,
19.709415,1,,
19.709674,0,,
19.709933,0,,
19.710191,\r,,
19.71045,\n,,
19.725963,S,,
19.726222,W,,
19.726481,D,,
19.72674,V,,
19.726999,5,,
19.727258,3,,
19.727517,4,,
19.727776,B,,
19.728034,1,,
19.728293,F,,
19.728552,0,,
19.728811,0,,
19.72907,0,,
19.729329,1,,
19.729588,0,,
19.729847,0,,
19.730106,\r,,
19.730365,\n,,
19.795657,S,,
19.795916,W,,
19.796175,D,,
19.796434,S,,
19.796693,4,,
19.796952,0,,
19.797211,0,,
19.79747,0,,
19.797728,0,,
19.797987,0,,
19.798246,0,,
19.798505,0,,
19.798764,0,,
19.799023,1,,
19.799282,0,,
19.799541,0,,
19.7998,\r,,
19.800059,\n,,
19.925112,S,,
19.925371,W,,
19.92563,D,,
19.925888,S,,
19.926147,0,,
19.926406,0,,
19.926665,0,,
19.926924,0,,
19.927183,0,,
