Time [s],Value,Parity Error,Framing Error
0.032841,L,,
0.033101,C,,
0.033361,S,,
0.033621,A,,
0.033881,'177',,
0.034141,*,,
0.034401,'160',,
0.034661,'0',,
0.034921,\n,,
0.035181,'0',,
0.035441,'1',,
0.035701,h,,
0.035961,'28',,
0.036221,'208',,
0.036481,'15',,
0.036741,'200',,
0.037001,'23',,
0.037261,'0',,
0.037521,'0',,
0.037781,'0',,
0.038041,'0',,
0.038302,'0',,
0.038561,'169',,
0.038822,'154',,
0.039082,a,,
0.039342,'143',,
0.039602,'160',,
0.039862,'128',,
0.040122,'0',,
0.040382,'1',,
0.040642,'8',,
0.040902,'30',,
0.041162,'4',,
0.041422,'8',,
0.3327,L,,
0.33296,C,,
0.33322,S,,
0.33348,A,,
0.33374,'177',,
0.334,*,,
0.33426,'160',,
0.33452,'0',,
0.33478,\n,,
0.33504,'0',,
0.3353,'1',,
0.33556,h,,
0.33582,'28',,
0.33608,'208',,
0.33634,'15',,
0.3366,'200',,
0.33686,'23',,
0.33712,'0',,
0.33738,'0',,
0.33764,'0',,
0.3379,'0',,
0.33816,'0',,
0.33842,'169',,
0.33868,'154',,
0.33894,a,,
0.3392,'143',,
0.33946,'160',,
0.33972,'128',,
0.33998,'0',,
0.34024,'1',,
0.3405,'8',,
0.34076,'30',,
0.34102,'4',,
0.341281,'8',,
0.632901,L,,
0.633161,C,,
0.633421,S,,
0.633681,A,,
0.633941,'177',,
0.634201,*,,
0.634461,'160',,
0.634721,'0',,
0.634981,\n,,
0.635241,'0',,
0.635501,'1',,
0.635761,h,,
0.636022,'28',,
0.636282,'208',,
0.636542,'15',,
0.636802,'200',,
0.637062,'23',,
0.637322,'0',,
0.637582,'0',,
0.637842,'0',,
0.638102,'0',,
0.638362,'0',,
0.638622,'169',,
0.638882,'154',,
0.639142,a,,
0.639402,'143',,
0.639662,'160',,
0.639922,'128',,
0.640182,'0',,
0.640442,'1',,
0.640702,'8',,
0.640962,'30',,
0.641222,'4',,
0.641482,'8',,
0.93276,L,,
0.93302,C,,
0.93328,S,,
0.93354,A,,
0.9338,'177',,
0.93406,*,,
0.93432,'160',,
0.93458,'0',,
0.93484,\n,,
0.9351,'0',,
0.93536,'1',,
0.93562,h,,
0.93588,'28',,
0.93614,'208',,
0.9364,'15',,
0.93666,'200',,
0.93692,'23',,
0.93718,'0',,
0.93744,'0',,
0.9377,'0',,
0.93796,'0',,
0.93822,'0',,
0.93848,'169',,
0.93874,'154',,
0.939,a,,
0.939261,'143',,
0.939521,'160',,
0.939781,'128',,
0.940041,'0',,
0.940301,'1',,
0.940561,'8',,
0.940821,'30',,
0.941081,'4',,
0.941341,'8',,
1.23296,L,,
1.23322,C,,
1.23348,S,,
1.23374,A,,
1.234,'177',,
1.23426,*,,
1.23452,'160',,
1.23478,'0',,
1.23504,\n,,
1.2353,'0',,
1.23556,'1',,
1.23582,h,,
1.23608,'28',,
1.23634,'208',,
1.2366,'15',,
1.23686,'200',,
1.23712,'23',,
1.23738,'0',,
1.23764,'0',,
1.2379,'0',,
1.23816,'0',,
1.23842,'0',,
1.23868,'169',,
1.23894,'154',,
1.2392,a,,
1.23946,'143',,
1.23972,'160',,
1.239981,'128',,
1.240241,'0',,
1.240501,'1',,
1.240761,'8',,
1.241021,'30',,
1.241281,'4',,
1.241541,'8',,
1.532818,L,,
1.533078,C,,
1.533338,S,,
1.533598,A,,
1.533859,'177',,
1.534119,*,,
1.534379,'160',,
1.534639,'0',,
1.534899,\n,,
1.535159,'0',,
1.535419,'1',,
1.535679,h,,
1.535939,'28',,
1.536199,'208',,
1.536459,'15',,
1.536719,'200',,
1.536979,'23',,
1.537239,'0',,
1.537499,'0',,
1.537759,'0',,
1.538019,'0',,
1.538279,'0',,
1.538539,'169',,
1.538799,'154',,
1.539059,a,,
1.539319,'143',,
1.539579,'160',,
1.539839,'128',,
1.540099,'0',,
1.540359,'1',,
1.540619,'8',,
1.540879,'30',,
1.541139,'4',,
1.541399,'8',,
1.83302,L,,
1.83328,C,,
1.83354,S,,
1.8338,A,,
1.83406,'177',,
1.83432,*,,
1.83458,'160',,
1.83484,'0',,
1.8351,\n,,
1.83536,'0',,
1.83562,'1',,
1.83588,h,,
1.83614,'28',,
1.8364,'208',,
1.83666,'15',,
1.83692,'200',,
1.83718,'23',,
1.83744,'0',,
1.8377,'0',,
1.837961,'0',,
1.838221,'0',,
1.838481,'0',,
1.838741,'169',,
1.839001,'154',,
1.839261,a,,
1.839521,'143',,
1.839781,'160',,
1.840041,'128',,
1.840301,'0',,
1.840561,'1',,
1.840821,'8',,
1.841081,'30',,
1.841341,'4',,
1.841601,'8',,
2.132877,L,,
2.133137,C,,
2.133397,S,,
2.133657,A,,
2.133917,'177',,
2.134177,*,,
2.134437,'160',,
2.134697,'0',,
2.134957,\n,,
2.135217,'0',,
2.135477,'1',,
2.135737,h,,
2.135997,'28',,
2.136257,'208',,
2.136517,'15',,
2.136777,'200',,
2.137037,'23',,
2.137297,'0',,
2.137557,'0',,
2.137817,'0',,
2.138078,'0',,
2.138338,'0',,
2.138598,'169',,
2.138858,'154',,
2.139118,a,,
2.139378,'143',,
2.139638,'160',,
2.139898,'128',,
2.140158,'0',,
2.140418,'1',,
2.140678,'8',,
2.140938,'30',,
2.141198,'4',,
2.141458,'8',,
2.433082,L,,
2.433342,C,,
2.433602,S,,
2.433862,A,,
2.434122,'177',,
2.434382,*,,
2.434642,'160',,
2.434902,'0',,
2.435162,\n,,
2.435422,'0',,
2.435682,'1',,
2.435942,h,,
2.436202,'28',,
2.436462,'208',,
2.436722,'15',,
2.436982,'200',,
2.437242,'23',,
2.437502,'0',,
2.437762,'0',,
2.438022,'0',,
2.438282,'0',,
2.438542,'0',,
2.438802,'169',,
2.439062,'154',,
2.439322,a,,
2.439582,'143',,
2.439843,'160',,
2.440103,'128',,
2.440363,'0',,
2.440623,'1',,
2.440883,'8',,
2.441143,'30',,
2.441403,'4',,
2.441663,'8',,
2.732937,L,,
2.733197,C,,
2.733457,S,,
2.733717,A,,
2.733977,'177',,
2.734237,*,,
2.734497,'160',,
2.734757,'0',,
2.735017,\n,,
2.735277,'0',,
2.735537,'1',,
2.735798,h,,
2.736058,'28',,
2.736318,'208',,
2.736578,'15',,
2.736838,'200',,
2.737098,'23',,
2.737358,'0',,
2.737618,'0',,
2.737878,'0',,
2.738138,'0',,
2.738398,'0',,
2.738658,'169',,
2.738918,'154',,
2.739178,a,,
2.739438,'143',,
2.739698,'160',,
2.739958,'128',,
2.740218,'0',,
2.740478,'1',,
2.740738,'8',,
2.740998,'30',,
2.741258,'4',,
2.741518,'8',,
3.033142,L,,
3.033402,C,,
3.033662,S,,
3.033922,A,,
3.034182,'177',,
3.034442,*,,
3.034702,'160',,
3.034962,'0',,
3.035222,\n,,
3.035482,'0',,
3.035742,'1',,
3.036002,h,,
3.036262,'28',,
3.036522,'208',,
3.036782,'15',,
3.037042,'200',,
3.037302,'23',,
3.037562,'0',,
3.037822,'0',,
3.038083,'0',,
3.038343,'0',,
3.038603,'0',,
3.038863,'169',,
3.039123,'154',,
3.039383,a,,
3.039643,'143',,
3.039903,'160',,
3.040163,'128',,
3.040423,'0',,
3.040683,'1',,
3.040943,'8',,
3.041203,'30',,
3.041463,'4',,
3.041723,'8',,
3.332999,L,,
3.333259,C,,
3.333519,S,,
3.333779,A,,
3.334039,'177',,
3.334299,*,,
3.334559,'160',,
3.334819,'0',,
3.335079,\n,,
3.335339,'0',,
3.335599,'1',,
3.335859,h,,
3.336119,'28',,
3.336379,'208',,
3.336639,'15',,
3.336899,'200',,
3.337159,'23',,
3.337419,'0',,
3.33768,'0',,
3.33794,'0',,
3.3382,'0',,
3.33846,'0',,
3.33872,'169',,
3.33898,'154',,
3.33924,a,,
3.3395,'143',,
3.33976,'160',,
3.34002,'128',,
3.34028,'0',,
3.34054,'1',,
3.3408,'8',,
3.34106,'30',,
3.34132,'4',,
3.34158,'8',,
3.633202,L,,
3.633462,C,,
3.633722,S,,
3.633982,A,,
3.634242,'177',,
3.634502,*,,
3.634762,'160',,
3.635022,'0',,
3.635282,\n,,
3.635542,'0',,
3.635802,'1',,
3.636063,h,,
3.636323,'28',,
3.636583,'208',,
3.636843,'15',,
3.637103,'200',,
3.637363,'23',,
3.637623,'0',,
3.637883,'0',,
3.638143,'0',,
3.638403,'0',,
3.638663,'0',,
3.638923,'169',,
3.639183,'154',,
3.639443,a,,
3.639703,'143',,
3.639963,'160',,
3.640223,'128',,
3.640483,'0',,
3.640743,'1',,
3.641003,'8',,
3.641263,'30',,
3.641523,'4',,
3.641783,'8',,
3.664992,L,,
3.665252,C,,
3.665512,S,,
3.665772,A,,
3.666032,'161',,
3.666292,*,,
3.666552,'160',,
3.666812,'0',,
3.667072,\n,,
3.667332,'0',,
3.667592,'1',,
3.667852,h,,
3.668112,'28',,
3.668372,'208',,
3.668632,'15',,
3.668892,'200',,
3.669152,'23',,
3.669412,'0',,
3.669672,'0',,
3.669933,'0',,
3.670193,'0',,
3.670453,'0',,
3.670713,'169',,
3.670973,'154',,
3.671233,a,,
3.671493,'143',,
3.671753,'160',,
3.672013,'128',,
3.672273,'0',,
3.672533,'1',,
3.672793,'225',,
3.673053,'4',,
3.673313,'4',,
3.673573,'8',,
3.933061,L,,
3.933321,C,,
3.933581,S,,
3.933841,A,,
3.934101,'161',,
3.934361,*,,
3.934621,'160',,
3.934881,'0',,
3.935141,\n,,
3.935401,'0',,
3.935661,'1',,
3.935921,h,,
3.936181,'28',,
3.936441,'208',,
3.936701,'15',,
3.936961,'200',,
3.937221,'23',,
3.937481,'0',,
3.937741,'0',,
3.938001,'0',,
3.938261,'0',,
3.938521,'0',,
3.938781,'169',,
3.939042,'154',,
3.939302,a,,
3.939562,'143',,
3.939822,'160',,
3.940082,'128',,
3.940342,'0',,
3.940602,'1',,
3.940862,'225',,
3.941122,'4',,
3.941382,'4',,
3.941642,'8',,
4.233262,L,,
4.233522,C,,
4.233783,S,,
4.234043,A,,
4.234303,'161',,
4.234563,*,,
4.234823,'160',,
4.235083,'0',,
4.235343,\n,,
4.235603,'0',,
4.235863,'1',,
4.236123,h,,
4.236383,'28',,
4.236643,'208',,
4.236903,'15',,
4.237163,'200',,
4.237423,'23',,
4.237683,'0',,
4.237943,'0',,
4.238203,'0',,
4.238463,'0',,
4.238723,'0',,
4.238983,'169',,
4.239243,'154',,
4.239503,a,,
4.239763,'143',,
4.240023,'160',,
4.240283,'128',,
4.240543,'0',,
4.240803,'1',,
4.241063,'225',,
4.241323,'4',,
4.241583,'4',,
4.241843,'8',,
4.533118,L,,
4.533378,C,,
4.533638,S,,
4.533898,A,,
4.534158,'161',,
4.534418,*,,
4.534678,'160',,
4.534938,'0',,
4.535198,\n,,
4.535458,'0',,
4.535718,'1',,
4.535978,h,,
4.536238,'28',,
4.536498,'208',,
4.536758,'15',,
4.537018,'200',,
4.537278,'23',,
4.537538,'0',,
4.537798,'0',,
4.538058,'0',,
4.538318,'0',,
4.538578,'0',,
4.538838,'169',,
4.539098,'154',,
4.539358,a,,
4.539618,'143',,
4.539879,'160',,
4.540139,'128',,
4.540399,'0',,
4.540659,'1',,
4.540919,'225',,
4.541179,'4',,
4.541439,'4',,
4.541699,'8',,
4.833319,L,,
4.833579,C,,
4.833839,S,,
4.834099,A,,
4.834359,'161',,
4.83462,*,,
4.83488,'160',,
4.83514,'0',,
4.8354,\n,,
4.83566,'0',,
4.83592,'1',,
4.83618,h,,
4.83644,'28',,
4.8367,'208',,
4.83696,'15',,
4.83722,'200',,
4.83748,'23',,
4.83774,'0',,
4.838,'0',,
4.83826,'0',,
4.83852,'0',,
4.83878,'0',,
4.83904,'169',,
4.8393,'154',,
4.83956,a,,
4.83982,'143',,
4.84008,'160',,
4.84034,'128',,
4.8406,'0',,
4.84086,'1',,
4.84112,'225',,
4.84138,'4',,
4.84164,'4',,
4.8419,'8',,
5.095486,L,,
5.095746,C,,
5.096006,S,,
5.096266,A,,
5.096526,'8',,
5.096786,\n,,
5.097046,'160',,
5.097306,'0',,
5.097566,\n,,
5.097826,'0',,
5.098086,'1',,
5.098346,h,,
5.098606,'28',,
5.098866,'208',,
5.099126,'15',,
5.099386,'200',,
5.099646,'23',,
5.099906,'0',,
5.100166,'0',,
5.100426,'0',,
5.100686,'0',,
5.100946,'0',,
5.101206,'169',,
5.101466,'154',,
5.101726,a,,
5.101986,'143',,
5.102246,'160',,
5.102506,'128',,
5.102766,'161',,
5.103026,'129',,
5.103286,'168',,
5.103546,K,,
5.103807,'4',,
5.104067,'8',,
5.133191,L,,
5.133451,C,,
5.133711,S,,
5.133971,A,,
5.134231,'8',,
5.134491,\n,,
5.134751,'160',,
5.135011,'0',,
5.135271,\n,,
5.135531,'0',,
5.135791,'1',,
5.136051,h,,
5.136311,'28',,
5.136571,'208',,
5.136831,'15',,
5.137091,'200',,
5.137352,'23',,
5.137612,'0',,
5.137872,'0',,
5.138132,'0',,
5.138392,'0',,
5.138652,'0',,
5.138912,'169',,
5.139172,'154',,
5.139432,a,,
5.139692,'143',,
5.139952,'160',,
5.140212,'128',,
5.140472,'161',,
5.140732,'129',,
5.140992,'168',,
5.141252,K,,
5.141512,'4',,
5.141772,'8',,
5.433391,L,,
5.433651,C,,
5.433911,S,,
5.434171,A,,
5.434431,'8',,
5.434691,\n,,
5.434951,'160',,
5.435211,'0',,
5.435471,\n,,
5.435731,'0',,
5.435991,'1',,
5.436251,h,,
5.436511,'28',,
5.436771,'208',,
5.437031,'15',,
5.437291,'200',,
5.437551,'23',,
5.437811,'0',,
5.438071,'0',,
5.438331,'0',,
5.438591,'0',,
5.438851,'0',,
5.439112,'169',,
5.439372,'154',,
5.439632,a,,
5.439892,'143',,
5.440152,'160',,
5.440412,'128',,
5.440672,'161',,
5.440932,'129',,
5.441192,'168',,
5.441452,K,,
5.441712,'4',,
5.441972,'8',,
5.733248,L,,
5.733508,C,,
5.733768,S,,
5.734028,A,,
5.734288,'8',,
5.734548,\n,,
5.734808,'160',,
5.735068,'0',,
5.735328,\n,,
5.735588,'0',,
5.735848,'1',,
5.736108,h,,
5.736368,'28',,
5.736628,'208',,
5.736888,'15',,
5.737148,'200',,
5.737408,'23',,
5.737668,'0',,
5.737928,'0',,
5.738189,'0',,
5.738449,'0',,
5.738709,'0',,
5.738969,'169',,
5.739229,'154',,
5.739489,a,,
5.739749,'143',,
5.740009,'160',,
5.740269,'128',,
5.740529,'161',,
5.740789,'129',,
5.741049,'168',,
5.741309,K,,
5.741569,'4',,
5.741829,'8',,
6.03345,L,,
6.03371,C,,
6.03397,S,,
6.03423,A,,
6.03449,'8',,
6.03475,\n,,
6.03501,'160',,
6.03527,'0',,
6.03553,\n,,
6.03579,'0',,
6.03605,'1',,
6.03631,h,,
6.03657,'28',,
6.03683,'208',,
6.03709,'15',,
6.03735,'200',,
6.03761,'23',,
6.03787,'0',,
6.03813,'0',,
6.03839,'0',,
6.03865,'0',,
6.03891,'0',,
6.03917,'169',,
6.03943,'154',,
6.03969,a,,
6.03995,'143',,
6.04021,'160',,
6.04047,'128',,
6.04073,'161',,
6.04099,'129',,
6.04125,'168',,
6.04151,K,,
6.04177,'4',,
6.04203,'8',,
6.215591,L,,
6.215851,C,,
6.216111,S,,
6.216371,A,,
6.216631,'168',,
6.216891,\n,,
6.217151,'160',,
6.217411,'0',,
6.217671,\n,,
6.217931,'0',,
6.218192,'1',,
6.218452,h,,
6.218712,'28',,
6.218972,'208',,
6.219232,'15',,
6.219492,'200',,
6.219752,'23',,
6.220012,'0',,
6.220272,'0',,
6.220532,'0',,
6.220792,'0',,
6.221052,'0',,
6.221312,'169',,
6.221572,'154',,
6.221832,a,,
6.222092,'143',,
6.222352,'160',,
6.222612,'128',,
6.222872,'161',,
6.223132,'129',,
6.223392,'168',,
6.223652,K,,
6.223912,'4',,
6.224172,'8',,
6.333307,L,,
6.333567,C,,
6.333827,S,,
6.334087,A,,
6.334347,'168',,
6.334607,\n,,
6.334867,'160',,
6.335127,'0',,
6.335387,\n,,
6.335647,'0',,
6.335907,'1',,
6.336167,h,,
6.336427,'28',,
6.336687,'208',,
6.336947,'15',,
6.337207,'200',,
6.337467,'23',,
6.337727,'0',,
6.337987,'0',,
6.338247,'0',,
6.338507,'0',,
6.338767,'0',,
6.339027,'169',,
6.339287,'154',,
6.339547,a,,
6.339807,'143',,
6.340067,'160',,
6.340327,'128',,
6.340587,'161',,
6.340847,'129',,
6.341107,'168',,
6.341367,K,,
6.341627,'4',,
6.341887,'8',,
6.633508,L,,
6.633768,C,,
6.634028,S,,
6.634288,A,,
6.634548,'168',,
6.634808,\n,,
6.635068,'160',,
6.635328,'0',,
6.635588,\n,,
6.635848,'0',,
6.636108,'1',,
6.636368,h,,
6.636629,'28',,
6.636889,'208',,
6.637149,'15',,
6.637409,'200',,
6.637669,'23',,
6.637929,'0',,
6.638189,'0',,
6.638449,'0',,
6.638709,'0',,
6.638969,'0',,
6.639229,'169',,
6.639489,'154',,
6.639749,a,,
6.640009,'143',,
6.640269,'160',,
6.640529,'128',,
6.640789,'161',,
6.641049,'129',,
6.641309,'168',,
6.641569,K,,
6.641829,'4',,
6.642089,'8',,
6.933367,L,,
6.933627,C,,
6.933887,S,,
6.934147,A,,
6.934407,'168',,
6.934667,\n,,
6.934927,'160',,
6.935187,'0',,
6.935447,\n,,
6.935707,'0',,
6.935967,'1',,
6.936227,h,,
6.936487,'28',,
6.936747,'208',,
6.937007,'15',,
6.937267,'200',,
6.937527,'23',,
6.937787,'0',,
6.938047,'0',,
6.938307,'0',,
6.938567,'0',,
6.938827,'0',,
6.939087,'169',,
6.939347,'154',,
6.939607,a,,
6.939867,'143',,
6.940128,'160',,
6.940388,'128',,
6.940648,'161',,
6.940908,'129',,
6.941168,'168',,
6.941428,K,,
6.941688,'4',,
6.941948,'8',,
7.233568,L,,
7.233828,C,,
7.234088,S,,
7.234348,A,,
7.234608,'168',,
7.234869,\n,,
7.235129,'160',,
7.235389,'0',,
7.235649,\n,,
7.235909,'0',,
7.236169,'1',,
7.236429,h,,
7.236689,'28',,
7.236949,'208',,
7.237209,'15',,
7.237469,'200',,
7.237729,'23',,
7.237989,'0',,
7.238249,'0',,
7.238509,'0',,
7.238769,'0',,
7.239029,'0',,
7.239289,'169',,
7.239549,'154',,
7.239809,a,,
7.240069,'143',,
7.240329,'160',,
7.240589,'128',,
7.240849,'161',,
7.241109,'129',,
7.241369,'168',,
7.241629,K,,
7.241889,'4',,
7.242149,'8',,
7.415666,L,,
7.415926,C,,
7.416186,S,,
7.416446,A,,
7.416706,'250',,
7.416966,P,,
7.417226,'160',,
7.417486,'0',,
7.417746,\n,,
7.418006,'0',,
7.418266,'1',,
7.418526,h,,
7.418786,'28',,
7.419046,'208',,
7.419307,'15',,
7.419567,'200',,
7.419827,'23',,
7.420087,'0',,
7.420347,'0',,
7.420607,'0',,
7.420867,'0',,
7.421127,'0',,
7.421387,'169',,
7.421647,'154',,
7.421907,a,,
7.422167,'143',,
7.422427,'160',,
7.422687,'128',,
7.422947,'160',,
7.423207,'129',,
7.423467,'3',,
7.423727,'140',,
7.423987,'4',,
7.424247,'8',,
7.533419,L,,
7.533679,C,,
7.533939,S,,
7.534199,A,,
7.534459,'250',,
7.534719,P,,
7.534979,'160',,
7.535239,'0',,
7.535499,\n,,
7.535759,'0',,
7.536019,'1',,
7.536279,h,,
7.536539,'28',,
7.536799,'208',,
7.537059,'15',,
7.537319,'200',,
7.537579,'23',,
7.537839,'0',,
7.538099,'0',,
7.538359,'0',,
7.538619,'0',,
7.538879,'0',,
7.539139,'169',,
7.539399,'154',,
7.53966,a,,
7.53992,'143',,
7.54018,'160',,
7.54044,'128',,
7.5407,'160',,
7.54096,'129',,
7.54122,'3',,
7.54148,'140',,
7.54174,'4',,
7.542,'8',,
7.833621,L,,
7.83388,C,,
7.83414,S,,
7.834401,A,,
7.834661,'250',,
7.834921,P,,
7.835181,'160',,
7.835441,'0',,
7.835701,\n,,
7.835961,'0',,
7.836221,'1',,
7.836481,h,,
7.836741,'28',,
7.837001,'208',,
7.837261,'15',,
7.837521,'200',,
7.837781,'23',,
7.838041,'0',,
7.838301,'0',,
7.838561,'0',,
7.838821,'0',,
7.839081,'0',,
7.839341,'169',,
7.839601,'154',,
7.839861,a,,
7.840121,'143',,
7.840381,'160',,
7.840641,'128',,
7.840901,'160',,
7.841161,'129',,
7.841421,'3',,
7.841681,'140',,
7.841941,'4',,
7.842201,'8',,
8.133477,L,,
8.133737,C,,
8.133998,S,,
8.134258,A,,
8.134518,'250',,
8.134778,P,,
8.135038,'160',,
8.135298,'0',,
8.135558,\n,,
8.135818,'0',,
8.136078,'1',,
8.136338,h,,
8.136598,'28',,
8.136858,'208',,
8.137118,'15',,
8.137378,'200',,
8.137638,'23',,
8.137898,'0',,
8.138158,'0',,
8.138418,'0',,
8.138678,'0',,
8.138938,'0',,
8.139198,'169',,
8.139458,'154',,
8.139718,a,,
8.139978,'143',,
8.140238,'160',,
8.140498,'128',,
8.140758,'160',,
8.141018,'129',,
8.141278,'3',,
8.141538,'140',,
8.141798,'4',,
8.142058,'8',,
8.433681,L,,
8.433941,C,,
8.434201,S,,
8.434461,A,,
8.434721,'250',,
8.434981,P,,
8.435241,'160',,
8.435501,'0',,
8.435761,\n,,
8.436021,'0',,
8.436281,'1',,
8.436541,h,,
8.436801,'28',,
8.437061,'208',,
8.437321,'15',,
8.437581,'200',,
8.437841,'23',,
8.438101,'0',,
8.438361,'0',,
8.438621,'0',,
8.438881,'0',,
8.439141,'0',,
8.439401,'169',,
8.439661,'154',,
8.439921,a,,
8.440181,'143',,
8.440441,'160',,
8.440701,'128',,
8.440961,'160',,
8.441221,'129',,
8.441481,'3',,
8.441741,'140',,
8.442001,'4',,
8.442262,'8',,
8.445752,L,,
8.446012,C,,
8.446272,S,,
8.446532,A,,
8.446792,'250',,
8.447053,P,,
8.447312,'160',,
8.447573,'0',,
8.447833,\n,,
8.448093,'0',,
8.448353,'1',,
8.448613,h,,
8.448873,'28',,
8.449133,'208',,
8.449393,'15',,
8.449653,'200',,
8.449913,'23',,
8.450173,'0',,
8.450433,'0',,
8.450693,'0',,
8.450953,'0',,
8.451213,'0',,
8.451473,'169',,
8.451733,'154',,
8.451993,a,,
8.452253,'143',,
8.452513,'160',,
8.452773,'128',,
8.453033,'160',,
8.453293,'139',,
8.453553,'3',,
8.453813,'140',,
8.454073,'4',,
8.454333,'8',,
8.733538,L,,
8.733798,C,,
8.734058,S,,
8.734318,A,,
8.734578,'250',,
8.734838,P,,
8.735098,'160',,
8.735358,'0',,
8.735618,\n,,
8.735878,'0',,
8.736138,'1',,
8.736398,h,,
8.736658,'28',,
8.736918,'208',,
8.737178,'15',,
8.737438,'200',,
8.737698,'23',,
8.737958,'0',,
8.738218,'0',,
8.738478,'0',,
8.738738,'0',,
8.738998,'0',,
8.739258,'169',,
8.739518,'154',,
8.739778,a,,
8.740038,'143',,
8.740298,'160',,
8.740558,'128',,
8.740818,'160',,
8.741078,'139',,
8.741338,'3',,
8.741599,'140',,
8.741859,'4',,
8.742118,'8',,
9.033741,L,,
9.034001,C,,
9.034261,S,,
9.034521,A,,
9.034781,'250',,
9.035041,P,,
9.035301,'160',,
9.035561,'0',,
9.035821,\n,,
9.036081,'0',,
9.036341,'1',,
9.036601,h,,
9.036861,'28',,
9.037121,'208',,
9.037381,'15',,
9.037641,'200',,
9.037901,'23',,
9.038161,'0',,
9.038421,'0',,
9.038681,'0',,
9.038941,'0',,
9.039201,'0',,
9.039461,'169',,
9.039721,'154',,
9.039982,a,,
9.040241,'143',,
9.040502,'160',,
9.040762,'128',,
9.041022,'160',,
9.041282,'139',,
9.041542,'3',,
9.041802,'140',,
9.042062,'4',,
9.042322,'8',,
9.333598,L,,
9.333858,C,,
9.334118,S,,
9.334378,A,,
9.334638,'250',,
9.334898,P,,
9.335158,'160',,
9.335418,'0',,
9.335678,\n,,
9.335938,'0',,
9.336198,'1',,
9.336458,h,,
9.336718,'28',,
9.336978,'208',,
9.337238,'15',,
9.337498,'200',,
9.337758,'23',,
9.338018,'0',,
9.338278,'0',,
9.338538,'0',,
9.338798,'0',,
9.339058,'0',,
9.339318,'169',,
9.339578,'154',,
9.339839,a,,
9.340099,'143',,
9.340359,'160',,
9.340619,'128',,
9.340879,'160',,
9.341139,'139',,
9.341399,'3',,
9.341659,'140',,
9.341919,'4',,
9.342179,'8',,
9.545456,L,,
9.545716,C,,
9.545976,S,,
9.546236,A,,
9.546496,'177',,
9.546756,*,,
9.547016,'160',,
9.547276,'0',,
9.547536,\n,,
9.547796,'0',,
9.548056,'1',,
9.548316,h,,
9.548576,'28',,
9.548836,'208',,
9.549096,'15',,
9.549356,'200',,
9.549616,'23',,
9.549876,'0',,
9.550136,'0',,
9.550396,'0',,
9.550656,'0',,
9.550916,'0',,
9.551176,'169',,
9.551436,'154',,
9.551696,a,,
9.551956,'143',,
9.552216,'160',,
9.552476,'128',,
9.552736,'0',,
9.552996,'1',,
9.553256,'8',,
9.553516,'30',,
9.553776,'4',,
9.554037,'8',,
9.633799,L,,
9.634059,C,,
9.63432,S,,
9.634579,A,,
9.63484,'177',,
9.6351,*,,
9.63536,'160',,
9.63562,'0',,
9.63588,\n,,
9.63614,'0',,
9.6364,'1',,
9.63666,h,,
9.63692,'28',,
9.63718,'208',,
9.63744,'15',,
9.6377,'200',,
9.63796,'23',,
9.63822,'0',,
9.63848,'0',,
9.63874,'0',,
9.639,'0',,
9.63926,'0',,
9.63952,'169',,
9.63978,'154',,
9.64004,a,,
9.6403,'143',,
9.64056,'160',,
9.64082,'128',,
9.64108,'0',,
9.64134,'1',,
9.6416,'8',,
9.64186,'30',,
