Time [s],Value,Parity Error,Framing Error
0.76882,S,,
0.769079,W,,
0.769338,D,,
0.769597,V,,
0.769856,5,,
0.770114,3,,
0.770373,7,,
0.770632,E,,
0.770891,1,,
0.77115,F,,
0.771409,1,,
0.771668,8,,
0.771927,0,,
0.772186,1,,
0.772445,0,,
0.772703,0,,
0.772962,\r,,
0.773221,\n,,
0.778777,S,,
0.779035,W,,
0.779294,D,,
0.779553,V,,
0.779812,5,,
0.780071,5,,
0.78033,7,,
0.780589,E,,
0.780848,1,,
0.781107,F,,
0.781366,1,,
0.781624,8,,
0.781883,0,,
0.782142,1,,
0.782401,0,,
0.78266,0,,
0.782919,\r,,
0.783178,\n,,
0.788735,S,,
0.788994,W,,
0.789253,D,,
0.789511,V,,
0.78977,5,,
0.790029,4,,
0.790288,7,,
0.790547,E,,
0.790806,1,,
0.791065,F,,
0.791324,1,,
0.791583,8,,
0.791842,0,,
0.7921,1,,
0.792359,0,,
0.792618,0,,
0.792877,\r,,
0.793136,\n,,
3.437542,S,,
3.437801,W,,
3.43806,D,,
3.438319,S,,
3.438578,0,,
3.438837,0,,
3.439096,0,,
3.439355,0,,
3.439614,8,,
3.439873,0,,
3.440131,0,,
3.44039,0,,
3.440649,0,,
3.440908,1,,
3.441167,0,,
3.441426,0,,
3.441685,\r,,
3.441944,\n,,
3.656616,S,,
3.656875,W,,
3.657134,D,,
3.657393,S,,
3.657652,0,,
3.657911,0,,
3.65817,0,,
3.658429,0,,
3.658688,0,,
3.658947,0,,
3.659205,0,,
3.659464,0,,
3.659723,0,,
3.659982,1,,
3.660241,0,,
3.6605,0,,
3.660759,\r,,
3.661018,\n,,
4.921278,S,,
4.921537,W,,
4.921796,D,,
4.922055,S,,
4.922314,0,,
4.922573,0,,
4.922832,0,,
4.923091,0,,
4.92335,8,,
4.923609,0,,
4.923867,0,,
4.924126,0,,
4.924385,0,,
4.924644,1,,
4.924903,0,,
4.925162,0,,
4.925421,\r,,
4.92568,\n,,
5.080611,S,,
5.08087,W,,
5.081129,D,,
5.081388,S,,
5.081647,0,,
5.081906,0,,
5.082165,0,,
5.082424,0,,
5.082683,0,,
5.082942,0,,
5.0832,0,,
5.083459,0,,
5.083718,0,,
5.083977,1,,
5.084236,0,,
5.084495,0,,
5.084754,\r,,
5.085013,\n,,
6.006697,S,,
6.006956,W,,
6.007215,D,,
6.007474,S,,
6.007733,0,,
6.007991,0,,
6.00825,0,,
6.008509,0,,
6.008768,8,,
6.009027,0,,
6.009286,0,,
6.009545,0,,
6.009804,0,,
6.010063,1,,
6.010322,0,,
6.01058,0,,
6.010839,\r,,
6.011098,\n,,
6.205855,S,,
6.206114,W,,
6.206372,D,,
6.206631,S,,
6.20689,0,,
6.207149,0,,
6.207408,0,,
6.207667,0,,
6.207926,0,,
6.208185,0,,
6.208444,0,,
6.208703,0,,
6.208961,0,,
6.20922,1,,
6.209479,0,,
6.209738,0,,
6.209997,\r,,
6.210256,\n,,
7.251451,S,,
7.251709,W,,
7.251968,D,,
7.252227,S,,
7.252486,0,,
7.252745,0,,
7.253004,0,,
7.253263,0,,
7.253522,8,,
7.253781,0,,
7.25404,0,,
7.254298,0,,
7.254557,0,,
7.254816,1,,
7.255075,0,,
7.255334,0,,
7.255593,\r,,
7.255852,\n,,
7.400809,S,,
7.401068,W,,
7.401327,D,,
7.401586,S,,
7.401845,0,,
7.402104,0,,
7.402363,0,,
7.402622,0,,
7.40288,0,,
7.403139,0,,
7.403398,0,,
7.403657,0,,
7.403916,0,,
7.404175,1,,
7.404434,0,,
7.404693,0,,
7.404952,\r,,
7.405211,\n,,
7.649768,S,,
7.650027,W,,
7.650286,D,,
7.650545,V,,
7.650804,5,,
7.651062,4,,
7.651321,7,,
7.65158,E,,
7.651839,1,,
7.652098,E,,
7.652357,1,,
7.652616,8,,
7.652875,0,,
7.653134,1,,
7.653393,0,,
7.653652,0,,
7.65391,\r,,
7.654169,\n,,
7.659726,S,,
7.659985,W,,
7.660244,D,,
7.660503,V,,
7.660762,5,,
7.661021,4,,
7.66128,7,,
7.661539,E,,
7.661797,1,,
7.662056,F,,
7.662315,1,,
7.662574,8,,
7.662833,0,,
7.663092,1,,
7.663351,0,,
7.66361,0,,
7.663869,\r,,
7.664128,\n,,
8.237283,S,,
8.237542,W,,
8.237801,D,,
8.23806,S,,
8.238319,0,,
8.238578,0,,
8.238837,0,,
8.239096,0,,
8.239355,8,,
8.239613,0,,
8.239872,0,,
8.240131,0,,
8.24039,0,,
8.240649,1,,
8.240908,0,,
8.241167,0,,
8.241426,\r,,
8.241685,\n,,
8.436469,S,,
8.436728,W,,
8.436986,D,,
8.437246,S,,
8.437504,0,,
8.437764,0,,
8.438022,0,,
8.438281,0,,
8.43854,0,,
8.438799,0,,
8.439058,0,,
8.439317,0,,
8.439576,0,,
8.439834,1,,
8.440093,0,,
8.440352,0,,
8.440611,\r,,
8.44087,\n,,
9.362529,S,,
9.362788,W,,
9.363047,D,,
9.363306,S,,
9.363565,0,,
9.363824,0,,
9.364083,0,,
9.364341,0,,
9.3646,8,,
9.364859,0,,
9.365118,0,,
9.365377,0,,
9.365636,0,,
9.365895,1,,
9.366154,0,,
9.366413,0,,
9.366672,\r,,
9.366931,\n,,
9.531814,S,,
9.532073,W,,
9.532332,D,,
9.532591,S,,
9.53285,0,,
9.533109,0,,
9.533368,0,,
9.533626,0,,
9.533885,0,,
9.534144,0,,
9.534403,0,,
9.534662,0,,
9.534921,0,,
9.53518,1,,
9.535439,0,,
9.535698,0,,
9.535957,\r,,
9.536216,\n,,
10.368285,S,,
10.368544,W,,
10.368803,D,,
10.369062,S,,
10.36932,0,,
10.369579,0,,
10.369838,0,,
10.370097,0,,
10.370356,8,,
10.370615,0,,
10.370874,0,,
10.371133,0,,
10.371392,0,,
10.371651,1,,
10.371909,0,,
10.372168,0,,
10.372427,\r,,
10.372686,\n,,
10.547529,S,,
10.547788,W,,
10.548047,D,,
10.548306,S,,
10.548565,0,,
10.548824,0,,
10.549083,0,,
10.549341,0,,
10.5496,0,,
10.549859,0,,
10.550118,0,,
10.550377,0,,
10.550636,0,,
10.550895,1,,
10.551154,0,,
10.551413,0,,
10.551672,\r,,
10.55193,\n,,
11.304342,S,,
11.304601,W,,
11.30486,D,,
11.305119,V,,
11.305378,5,,
11.305637,4,,
11.305896,7,,
11.306155,D,,
11.306414,1,,
11.306672,F,,
11.306931,1,,
11.30719,8,,
11.307449,0,,
11.307708,1,,
11.307967,0,,
11.308226,0,,
11.308485,\r,,
11.308744,\n,,
11.32426,S,,
11.324519,W,,
11.324778,D,,
11.325037,V,,
11.325296,5,,
11.325555,4,,
11.325814,7,,
11.326073,F,,
11.326332,1,,
11.32659,F,,
11.326849,1,,
11.327108,8,,
11.327367,0,,
11.327626,1,,
11.327885,0,,
11.328144,0,,
11.328403,\r,,
11.328662,\n,,
11.334218,S,,
11.334477,W,,
11.334736,D,,
11.334995,V,,
11.335254,5,,
11.335513,4,,
11.335772,7,,
11.336031,E,,
11.33629,1,,
11.336549,F,,
11.336808,1,,
11.337066,8,,
11.337325,0,,
11.337584,1,,
11.337843,0,,
11.338102,0,,
11.338361,\r,,
11.33862,\n,,
11.354127,S,,
11.354386,W,,
11.354645,D,,
11.354904,S,,
11.355162,0,,
11.355421,0,,
11.35568,0,,
11.355939,0,,
11.356198,8,,
11.356457,0,,
11.356716,0,,
11.356975,0,,
11.357234,0,,
11.357493,1,,
11.357752,0,,
11.35801,0,,
11.358269,\r,,
11.358528,\n,,
11.443757,S,,
11.444016,W,,
11.444275,D,,
11.444534,V,,
11.444793,5,,
11.445052,5,,
11.445311,7,,
11.44557,E,,
11.445829,1,,
11.446088,F,,
11.446347,1,,
11.446605,8,,
11.446864,0,,
11.447123,1,,
11.447382,0,,
11.447641,0,,
11.4479,\r,,
11.448159,\n,,
11.463674,S,,
11.463933,W,,
11.464192,D,,
11.464451,V,,
11.46471,5,,
11.464968,4,,
11.465227,7,,
11.465486,E,,
11.465745,1,,
11.466004,F,,
11.466263,1,,
11.466522,8,,
11.466781,0,,
11.46704,1,,
11.467299,0,,
11.467558,0,,
11.467816,\r,,
11.468075,\n,,
11.583155,S,,
11.583414,W,,
11.583673,D,,
11.583932,S,,
11.58419,0,,
11.584449,0,,
11.584708,0,,
11.584967,0,,
11.585226,0,,
11.585485,0,,
11.585744,0,,
11.586003,0,,
11.586262,0,,
11.586521,1,,
11.586779,0,,
11.587038,0,,
11.587297,\r,,
11.587556,\n,,
12.429584,S,,
12.429843,W,,
12.430102,D,,
12.430361,S,,
12.43062,0,,
12.430878,0,,
12.431137,0,,
12.431396,0,,
12.431655,8,,
12.431914,0,,
12.432173,0,,
12.432432,0,,
12.432691,0,,
12.43295,1,,
12.433209,0,,
12.433468,0,,
12.433726,\r,,
12.433985,\n,,
12.618784,S,,
12.619042,W,,
12.619301,D,,
12.61956,S,,
12.619819,0,,
12.620078,0,,
12.620337,0,,
12.620596,0,,
12.620855,0,,
12.621114,0,,
12.621373,0,,
12.621632,0,,
12.62189,0,,
12.622149,1,,
12.622408,0,,
12.622667,0,,
12.622926,\r,,
12.623185,\n,,
13.465212,S,,
13.465471,W,,
13.46573,D,,
13.465989,S,,
13.466248,0,,
13.466507,0,,
13.466766,0,,
13.467025,0,,
13.467284,8,,
13.467542,0,,
13.467801,0,,
13.46806,0,,
13.468319,0,,
13.468578,1,,
13.468837,0,,
13.469096,0,,
13.469355,\r,,
13.469614,\n,,
13.624539,S,,
13.624798,W,,
13.625057,D,,
13.625316,S,,
13.625575,0,,
13.625833,0,,
13.626092,0,,
13.626351,0,,
13.62661,0,,
13.626869,0,,
13.627128,0,,
13.627387,0,,
13.627646,0,,
13.627905,1,,
13.628164,0,,
13.628423,0,,
13.628681,\r,,
13.62894,\n,,
14.490883,S,,
14.491142,W,,
14.491401,D,,
14.491659,S,,
14.491918,0,,
14.492177,0,,
14.492436,0,,
14.492695,0,,
14.492954,8,,
14.493213,0,,
14.493472,0,,
14.493731,0,,
14.49399,0,,
14.494249,1,,
14.494507,0,,
14.494766,0,,
14.495025,\r,,
14.495284,\n,,
14.640266,S,,
14.640525,W,,
14.640784,D,,
14.641043,V,,
14.641302,5,,
14.64156,4,,
14.641819,7,,
14.642078,E,,
14.642337,1,,
14.642596,E,,
14.642855,1,,
14.643114,8,,
14.643373,0,,
14.643632,1,,
14.643891,0,,
14.644149,0,,
14.644408,\r,,
14.644667,\n,,
14.660268,S,,
14.660527,W,,
14.660786,D,,
14.661045,A,,
14.661304,0,,
14.661563,0,,
14.661822,0,,
14.66208,0,,
14.662339,0,,
14.662598,0,,
14.662857,0,,
14.663116,0,,
14.663375,5,,
14.663634,4,,
14.663893,7,,
14.664152,E,,
14.664411,1,,
14.66467,F,,
14.664928,1,,
14.665187,8,,
14.665446,8,,
14.665705,0,,
14.665964,0,,
14.666223,1,,
14.666482,0,,
14.666741,0,,
14.667,\r,,
14.667259,\n,,
15.446848,S,,
15.447107,W,,
15.447366,D,,
15.447625,S,,
15.447884,0,,
15.448143,0,,
15.448402,0,,
15.448661,0,,
15.44892,8,,
15.449179,0,,
15.449437,0,,
15.449696,0,,
15.449955,0,,
15.450214,1,,
15.450473,0,,
15.450732,0,,
15.450991,\r,,
15.45125,\n,,
15.626091,S,,
15.62635,W,,
15.626609,D,,
15.626868,S,,
15.627127,0,,
15.627386,0,,
15.627645,0,,
15.627904,0,,
15.628163,0,,
15.628421,0,,
15.62868,0,,
15.628939,0,,
15.629198,0,,
15.629457,1,,
15.629716,0,,
15.629975,0,,
15.630234,\r,,
15.630493,\n,,
16.402817,S,,
16.403076,W,,
16.403335,D,,
16.403594,S,,
16.403853,0,,
16.404112,0,,
16.40437,0,,
16.404629,0,,
16.404888,8,,
16.405147,0,,
16.405406,0,,
16.405665,0,,
16.405924,0,,
16.406183,1,,
16.406442,0,,
16.406701,0,,
16.40696,\r,,
16.407218,\n,,
16.572099,S,,
16.572358,W,,
16.572617,D,,
16.572875,S,,
16.573134,0,,
16.573393,0,,
16.573652,0,,
16.573911,0,,
16.57417,0,,
16.574429,0,,
16.574688,0,,
16.574947,0,,
16.575206,0,,
16.575465,1,,
16.575723,0,,
16.575982,0,,
16.576241,\r,,
16.5765,\n,,
17.378693,S,,
17.378951,W,,
17.37921,D,,
17.379469,S,,
17.379728,0,,
17.379987,0,,
17.380246,0,,
17.380505,0,,
17.380764,8,,
17.381023,0,,
17.381282,0,,
17.381541,0,,
17.381799,0,,
17.382058,1,,
17.382317,0,,
17.382576,0,,
17.382835,\r,,
17.383094,\n,,
17.538021,S,,
17.53828,W,,
17.538539,D,,
17.538798,S,,
17.539056,0,,
17.539315,0,,
17.539574,0,,
17.539833,0,,
17.540092,0,,
17.540351,0,,
17.54061,0,,
17.540869,0,,
17.541128,0,,
17.541387,1,,
17.541645,0,,
17.541904,0,,
17.542163,\r,,
17.542422,\n,,
18.444195,S,,
18.444454,W,,
18.444712,D,,
18.444971,S,,
18.44523,0,,
18.445489,0,,
18.445748,0,,
18.446007,0,,
18.446266,8,,
18.446525,0,,
18.446784,0,,
18.447043,0,,
18.447302,0,,
18.44756,1,,
18.447819,0,,
18.448078,0,,
18.448337,\r,,
18.448596,\n,,
18.603521,S,,
18.60378,W,,
18.604039,D,,
18.604298,S,,
18.604557,0,,
18.604816,0,,
18.605075,0,,
18.605334,0,,
18.605592,0,,
18.605851,0,,
18.60611,0,,
18.606369,0,,
18.606628,0,,
18.606887,1,,
18.607146,0,,
18.607405,0,,
18.607664,\r,,
18.607923,\n,,
19.121348,S,,
19.121607,W,,
19.121866,D,,
19.122125,V,,
19.122384,5,,
19.122643,4,,
19.122902,7,,
19.123161,D,,
19.12342,1,,
19.123678,F,,
19.123937,1,,
19.124196,8,,
19.124455,0,,
19.124714,1,,
19.124973,0,,
19.125232,0,,
19.125491,\r,,
19.12575,\n,,
19.141265,S,,
19.141524,W,,
19.141783,D,,
19.142042,V,,
19.1423,5,,
19.142559,4,,
19.142818,7,,
19.143077,E,,
19.143336,1,,
19.143595,F,,
19.143854,1,,
19.144113,8,,
19.144372,0,,
19.144631,1,,
19.144889,0,,
19.145148,0,,
19.145407,\r,,
19.145666,\n,,
19.430033,S,,
19.430292,W,,
19.430551,D,,
19.43081,S,,
19.431069,0,,
19.431328,0,,
19.431587,0,,
19.431846,0,,
19.432104,8,,
19.432363,0,,
19.432622,0,,
19.432881,0,,
19.43314,0,,
19.433399,1,,
19.433658,0,,
19.433917,0,,
19.434176,\r,,
19.434435,\n,,
19.579401,S,,
19.57966,W,,
19.579919,D,,
19.580178,S,,
19.580437,0,,
19.580696,0,,
19.580955,0,,
19.581214,0,,
19.581473,0,,
19.581732,0,,
19.58199,0,,
19.582249,0,,
19.582508,0,,
19.582767,1,,
19.583026,0,,
19.583285,0,,
19.583544,\r,,
19.583803,\n,,
20.037484,S,,
20.037743,W,,
20.038002,D,,
20.038261,V,,
20.038519,5,,
20.038778,3,,
20.039037,7,,
20.039296,E,,
20.039555,1,,
20.039814,F,,
20.040073,1,,
20.040332,8,,
20.040591,0,,
20.04085,1,,
20.041108,0,,
20.041367,0,,
20.041626,\r,,
20.041885,\n,,
20.047439,S,,
20.047698,W,,
20.047957,D,,
20.048215,V,,
20.048474,5,,
20.048733,4,,
20.048992,7,,
20.049251,E,,
20.04951,1,,
20.049769,F,,
20.050028,1,,
20.050287,8,,
20.050546,0,,
20.050805,1,,
20.051063,0,,
20.051322,0,,
20.051581,\r,,
20.05184,\n,,
20.356124,S,,
20.356383,W,,
20.356642,D,,
20.3569,S,,
20.357159,0,,
20.357418,0,,
20.357677,0,,
20.357936,0,,
20.358195,8,,
20.358454,0,,
20.358713,0,,
20.358972,0,,
20.359231,0,,
20.35949,1,,
20.359749,0,,
20.360007,0,,
20.360266,\r,,
20.360525,\n,,
20.565239,S,,
20.565498,W,,
20.565757,D,,
20.566016,S,,
20.566275,0,,
20.566534,0,,
20.566793,0,,
20.567052,0,,
20.567311,0,,
20.56757,0,,
20.567828,0,,
20.568087,0,,
20.568346,0,,
20.568605,1,,
20.568864,0,,
20.569123,0,,
20.569382,\r,,
20.569641,\n,,
21.381793,S,,
21.382052,W,,
21.382311,D,,
21.38257,S,,
21.382829,0,,
21.383088,0,,
21.383347,0,,
21.383606,0,,
21.383865,8,,
21.384124,0,,
21.384383,0,,
21.384641,0,,
21.3849,0,,
21.385159,1,,
21.385418,0,,
21.385677,0,,
21.385936,\r,,
21.386195,\n,,
21.580951,S,,
21.58121,W,,
21.581469,D,,
21.581728,S,,
21.581987,0,,
21.582246,0,,
21.582505,0,,
21.582764,0,,
21.583022,0,,
21.583281,0,,
21.58354,0,,
21.583799,0,,
21.584058,0,,
21.584317,1,,
21.584576,0,,
21.584835,0,,
21.585094,\r,,
21.585353,\n,,
22.407462,S,,
22.407721,W,,
22.407979,D,,
22.408238,S,,
22.408497,0,,
22.408756,0,,
22.409015,0,,
22.409274,0,,
22.409533,8,,
22.409792,0,,
22.410051,0,,
22.41031,0,,
22.410569,0,,
22.410827,1,,
22.411086,0,,
22.411345,0,,
22.411604,\r,,
22.411863,\n,,
22.606626,S,,
22.606885,W,,
22.607144,D,,
22.607403,S,,
22.607662,0,,
22.60792,0,,
22.608179,0,,
22.608438,0,,
22.608697,0,,
22.608956,0,,
22.609215,0,,
22.609474,0,,
22.609733,0,,
22.609992,1,,
22.610251,0,,
22.61051,0,,
22.610769,\r,,
22.611027,\n,,
24.877055,S,,
24.877314,W,,
24.877572,D,,
24.877831,V,,
24.87809,5,,
24.878349,3,,
24.878608,7,,
24.878867,E,,
24.879126,1,,
24.879385,F,,
24.879644,1,,
24.879903,8,,
24.880162,0,,
24.88042,1,,
24.880679,0,,
24.880938,0,,
24.881197,\r,,
24.881456,\n,,
24.896968,S,,
24.897227,W,,
24.897486,D,,
24.897745,V,,
24.898003,5,,
24.898262,4,,
24.898521,7,,
24.89878,E,,
24.899039,1,,
24.899298,F,,
24.899557,1,,
24.899816,8,,
24.900075,0,,
24.900334,1,,
24.900593,0,,
24.900851,0,,
24.90111,\r,,
24.901369,\n,,
